Time Stamp,ID,Extended,Dir,Bus,LEN,D1,D2,D3,D4,D5,D6,D7,D8
0,00000131,false,Rx,0,8,93,83,00,00,00,00,02,E0,
0,00000131,false,Rx,0,8,93,83,00,00,00,00,02,E0,
0,00000131,false,Rx,0,8,93,83,00,00,00,00,02,E0,
0,00000131,false,Rx,0,8,93,83,00,00,00,00,02,E0,
0,00000131,false,Rx,0,8,93,83,00,00,00,00,02,E0,
0,00000131,false,Rx,0,8,93,83,00,00,00,00,02,E0,
0,00000131,false,Rx,0,8,93,83,00,00,00,00,02,E0,
0,00000131,false,Rx,0,8,93,83,00,00,00,00,02,E0,
0,00000131,false,Rx,0,8,93,83,00,00,00,00,02,E0,
0,00000131,false,Rx,0,8,93,83,00,00,00,00,02,E0,
0,00000131,false,Rx,0,8,93,83,00,00,00,00,02,E0,
0,00000131,false,Rx,0,8,93,83,00,00,00,00,02,E0,
0,00000131,false,Rx,0,8,93,83,00,00,00,00,02,E0,
0,00000131,false,Rx,0,8,93,83,00,00,00,00,02,E0,
0,00000131,false,Rx,0,8,93,83,00,00,00,00,02,E0,
0,00000131,false,Rx,0,8,93,83,00,00,00,00,02,E0,
0,00000131,false,Rx,0,8,93,83,00,00,00,00,02,E0,
0,00000131,false,Rx,0,8,93,83,00,00,00,00,02,E0,
0,00000131,false,Rx,0,8,93,83,00,00,00,00,02,E0,
0,00000131,false,Rx,0,8,93,83,00,00,00,00,02,E0,
0,00000131,false,Rx,0,8,93,83,00,00,00,00,02,E0,
0,00000131,false,Rx,0,8,93,83,00,00,00,00,02,E0,
0,00000131,false,Rx,0,8,93,83,00,00,00,00,02,E0,
0,00000131,false,Rx,0,8,93,83,00,00,00,00,02,E0,
0,00000131,false,Rx,0,8,93,83,00,00,00,00,02,E0,
0,00000131,false,Rx,0,8,93,83,00,00,00,00,02,E0,
0,00000131,false,Rx,0,8,93,83,00,00,00,00,02,E0,
0,00000131,false,Rx,0,8,93,83,00,00,00,00,02,E0,
0,00000131,false,Rx,0,8,93,83,00,00,00,00,02,E0,
0,00000131,false,Rx,0,8,93,83,00,00,00,00,02,E0,
0,00000131,false,Rx,0,8,93,83,00,00,00,00,02,E0,
0,00000131,false,Rx,0,8,93,83,00,00,00,00,02,E0,
0,00000131,false,Rx,0,8,93,83,00,00,00,00,02,E0,
0,00000131,false,Rx,0,8,93,83,00,00,00,00,02,E0,
0,00000131,false,Rx,0,8,93,83,00,00,00,00,02,E0,
0,00000131,false,Rx,0,8,93,83,00,00,00,00,02,E0,
0,00000131,false,Rx,0,8,93,83,00,00,00,00,02,E0,
0,00000131,false,Rx,0,8,93,83,00,00,00,00,02,E0,
0,00000131,false,Rx,0,8,93,83,00,00,00,00,02,E0,
0,00000131,false,Rx,0,8,93,83,00,00,00,00,02,E0,
0,00000131,false,Rx,0,8,93,83,00,00,00,00,02,E0,
0,00000131,false,Rx,0,8,93,83,00,00,00,00,02,E0,
0,00000131,false,Rx,0,8,93,83,00,00,00,00,02,E0,
0,00000131,false,Rx,0,8,93,83,00,00,00,00,02,E0,
0,00000131,false,Rx,0,8,93,83,00,00,00,00,02,E0,
0,00000131,false,Rx,0,8,93,83,00,00,00,00,02,E0,
0,00000131,false,Rx,0,8,93,83,00,00,00,00,02,E0,
0,00000131,false,Rx,0,8,93,83,00,00,00,00,02,E0,
0,00000131,false,Rx,0,8,93,83,00,00,00,00,02,E0,
0,00000131,false,Rx,0,8,93,83,00,00,00,00,02,E0,
0,00000131,false,Rx,0,8,93,83,00,00,00,00,02,E0,
0,00000131,false,Rx,0,8,93,83,00,00,00,00,02,E0,
0,00000131,false,Rx,0,8,93,83,00,00,00,00,02,E0,
0,00000131,false,Rx,0,8,93,83,00,00,00,00,02,E0,
0,00000131,false,Rx,0,8,93,83,00,00,00,00,02,E0,
0,00000131,false,Rx,0,8,93,83,00,00,00,00,02,E0,
0,00000131,false,Rx,0,8,93,83,00,00,00,00,02,E0,
0,00000131,false,Rx,0,8,93,83,00,00,00,00,02,E0,
0,00000131,false,Rx,0,8,93,83,00,00,00,00,02,E0,
0,00000131,false,Rx,0,8,93,83,00,00,00,00,02,E0,
0,00000131,false,Rx,0,8,93,83,00,00,00,00,02,E0,
0,00000131,false,Rx,0,8,93,83,00,00,00,00,02,E0,
0,00000131,false,Rx,0,8,93,83,00,00,00,00,02,E0,
0,00000131,false,Rx,0,8,93,83,00,00,00,00,02,E0,
0,00000131,false,Rx,0,8,93,83,00,00,00,00,02,E0,
0,00000131,false,Rx,0,8,93,83,00,00,00,00,02,E0,
0,00000131,false,Rx,0,8,93,83,00,00,00,00,02,E0,
0,00000131,false,Rx,0,8,93,83,00,00,00,00,02,E0,
0,00000131,false,Rx,0,8,93,83,00,00,00,00,02,E0,
0,00000131,false,Rx,0,8,93,83,00,00,00,00,02,E0,
0,00000131,false,Rx,0,8,93,83,00,00,00,00,02,E0,
0,00000131,false,Rx,0,8,93,83,00,00,00,00,02,E0,
0,00000131,false,Rx,0,8,93,83,00,00,00,00,02,E0,
0,00000131,false,Rx,0,8,93,83,00,00,00,00,02,E0,
0,00000131,false,Rx,0,8,93,83,00,00,00,00,02,E0,
0,00000131,false,Rx,0,8,93,83,00,00,00,00,02,E0,
0,00000131,false,Rx,0,8,93,83,00,00,00,00,02,E0,
0,00000131,false,Rx,0,8,93,83,00,00,00,00,02,E0,
0,00000131,false,Rx,0,8,93,83,00,00,00,00,02,E0,
0,00000131,false,Rx,0,8,93,83,00,00,00,00,02,E0,
0,00000131,false,Rx,0,8,93,83,00,00,00,00,02,E0,
0,00000131,false,Rx,0,8,93,83,00,00,00,00,02,E0,
0,00000131,false,Rx,0,8,93,83,00,00,00,00,02,E0,
0,00000131,false,Rx,0,8,93,83,00,00,00,00,02,E0,
0,00000131,false,Rx,0,8,93,83,00,00,00,00,02,E0,
0,00000131,false,Rx,0,8,93,83,00,00,00,00,02,E0,
0,00000131,false,Rx,0,8,93,83,00,00,00,00,02,E0,
0,00000131,false,Rx,0,8,93,83,00,00,00,00,02,E0,
0,00000131,false,Rx,0,8,93,83,00,00,00,00,02,E0,
0,00000131,false,Rx,0,8,93,83,00,00,00,00,02,E0,
0,00000131,false,Rx,0,8,93,83,00,00,00,00,02,E0,
0,00000131,false,Rx,0,8,93,83,00,00,00,00,02,E0,
0,00000131,false,Rx,0,8,93,83,00,00,00,00,02,E0,
0,00000131,false,Rx,0,8,93,83,00,00,00,00,02,E0,
0,00000131,false,Rx,0,8,93,83,00,00,00,00,02,E0,
0,00000131,false,Rx,0,8,93,83,00,00,00,00,02,E0,
0,00000131,false,Rx,0,8,93,83,00,00,00,00,02,E0,
0,00000131,false,Rx,0,8,93,83,00,00,00,00,02,E0,
0,00000131,false,Rx,0,8,93,83,00,00,00,00,02,E0,
0,00000131,false,Rx,0,8,93,83,00,00,00,00,02,E0,
0,00000131,false,Rx,0,8,93,83,00,00,00,00,02,E0,
0,00000131,false,Rx,0,8,93,83,00,00,00,00,02,E0,
0,00000131,false,Rx,0,8,93,83,00,00,00,00,02,E0,
0,00000131,false,Rx,0,8,93,83,00,00,00,00,02,E0,
0,00000131,false,Rx,0,8,93,83,00,00,00,00,02,E0,
0,00000131,false,Rx,0,8,93,83,00,00,00,00,02,E0,
0,00000131,false,Rx,0,8,93,83,00,00,00,00,02,E0,
0,00000131,false,Rx,0,8,93,83,00,00,00,00,02,E0,
0,00000131,false,Rx,0,8,93,83,00,00,00,00,02,E0,
0,00000131,false,Rx,0,8,93,83,00,00,00,00,02,E0,
0,00000131,false,Rx,0,8,93,83,00,00,00,00,02,E0,
0,00000131,false,Rx,0,8,93,83,00,00,00,00,02,E0,
0,00000131,false,Rx,0,8,93,83,00,00,00,00,02,E0,
0,00000131,false,Rx,0,8,93,83,00,00,00,00,02,E0,
0,00000131,false,Rx,0,8,93,83,00,00,00,00,02,E0,
0,00000131,false,Rx,0,8,93,83,00,00,00,00,02,E0,
0,00000131,false,Rx,0,8,93,83,00,00,00,00,02,E0,
0,00000131,false,Rx,0,8,93,83,00,00,00,00,02,E0,
0,00000131,false,Rx,0,8,93,83,00,00,00,00,02,E0,
0,00000131,false,Rx,0,8,93,83,00,00,00,00,02,E0,
0,00000131,false,Rx,0,8,93,83,00,00,00,00,02,E0,
0,00000131,false,Rx,0,8,93,83,00,00,00,00,02,E0,
0,00000131,false,Rx,0,8,93,83,00,00,00,00,02,E0,
0,00000131,false,Rx,0,8,93,83,00,00,00,00,02,E0,
0,00000131,false,Rx,0,8,93,83,00,00,00,00,02,E0,
0,00000131,false,Rx,0,8,93,83,00,00,00,00,02,E0,
0,00000131,false,Rx,0,8,93,83,00,00,00,00,02,E0,
0,00000131,false,Rx,0,8,93,83,00,00,00,00,02,E0,
0,00000131,false,Rx,0,8,93,83,00,00,00,00,02,E0,
0,00000131,false,Rx,0,8,93,83,00,00,00,00,02,E0,
0,00000131,false,Rx,0,8,93,83,00,00,00,00,02,E0,
0,00000131,false,Rx,0,8,93,83,00,00,00,00,02,E0,
0,00000131,false,Rx,0,8,93,83,00,00,00,00,02,E0,
0,00000131,false,Rx,0,8,93,83,00,00,00,00,02,E0,
0,00000131,false,Rx,0,8,93,83,00,00,00,00,02,E0,
0,00000131,false,Rx,0,8,93,83,00,00,00,00,02,E0,
0,00000131,false,Rx,0,8,93,83,00,00,00,00,02,E0,
0,00000131,false,Rx,0,8,93,83,00,00,00,00,02,E0,
0,00000131,false,Rx,0,8,93,83,00,00,00,00,02,E0,
0,00000131,false,Rx,0,8,93,83,00,00,00,00,02,E0,
0,00000131,false,Rx,0,8,93,83,00,00,00,00,02,E0,
0,00000131,false,Rx,0,8,93,83,00,00,00,00,02,E0,
0,00000131,false,Rx,0,8,93,83,00,00,00,00,02,E0,
0,00000131,false,Rx,0,8,93,83,00,00,00,00,02,E0,
0,00000131,false,Rx,0,8,93,83,00,00,00,00,02,E0,
0,00000131,false,Rx,0,8,93,83,00,00,00,00,02,E0,
0,00000131,false,Rx,0,8,93,83,00,00,00,00,02,E0,
0,00000131,false,Rx,0,8,93,83,00,00,00,00,02,E0,
0,00000131,false,Rx,0,8,93,83,00,00,00,00,02,E0,
0,00000131,false,Rx,0,8,93,83,00,00,00,00,02,E0,
0,00000131,false,Rx,0,8,93,83,00,00,00,00,02,E0,
0,00000131,false,Rx,0,8,93,83,00,00,00,00,02,E0,
0,00000131,false,Rx,0,8,93,83,00,00,00,00,02,E0,
0,00000131,false,Rx,0,8,93,83,00,00,00,00,02,E0,
0,00000131,false,Rx,0,8,93,83,00,00,00,00,02,E0,
0,00000131,false,Rx,0,8,93,83,00,00,00,00,02,E0,
0,00000131,false,Rx,0,8,93,83,00,00,00,00,02,E0,
0,00000131,false,Rx,0,8,93,83,00,00,00,00,02,E0,
0,00000131,false,Rx,0,8,93,83,00,00,00,00,02,E0,
0,00000131,false,Rx,0,8,93,83,00,00,00,00,02,E0,
0,00000131,false,Rx,0,8,93,83,00,00,00,00,02,E0,
0,00000131,false,Rx,0,8,93,83,00,00,00,00,02,E0,
0,00000131,false,Rx,0,8,93,83,00,00,00,00,02,E0,
0,00000131,false,Rx,0,8,93,83,00,00,00,00,02,E0,
0,00000131,false,Rx,0,8,93,83,00,00,00,00,02,E0,
0,00000131,false,Rx,0,8,93,83,00,00,00,00,02,E0,
0,00000131,false,Rx,0,8,93,83,00,00,00,00,02,E0,
0,00000131,false,Rx,0,8,93,83,00,00,00,00,02,E0,
0,00000131,false,Rx,0,8,93,83,00,00,00,00,02,E0,
0,00000131,false,Rx,0,8,93,83,00,00,00,00,02,E0,
0,00000131,false,Rx,0,8,93,83,00,00,00,00,02,E0,
0,00000131,false,Rx,0,8,93,83,00,00,00,00,02,E0,
0,00000131,false,Rx,0,8,93,83,00,00,00,00,02,E0,
0,00000131,false,Rx,0,8,93,83,00,00,00,00,02,E0,
0,00000131,false,Rx,0,8,93,83,00,00,00,00,02,E0,
0,00000131,false,Rx,0,8,93,83,00,00,00,00,02,E0,
0,00000131,false,Rx,0,8,93,83,00,00,00,00,02,E0,
0,00000131,false,Rx,0,8,93,83,00,00,00,00,02,E0,
0,00000131,false,Rx,0,8,93,83,00,00,00,00,02,E0,
0,00000131,false,Rx,0,8,93,83,00,00,00,00,02,E0,
0,00000131,false,Rx,0,8,93,83,00,00,00,00,02,E0,
0,00000131,false,Rx,0,8,93,83,00,00,00,00,02,E0,
0,00000131,false,Rx,0,8,93,83,00,00,00,00,02,E0,
0,00000131,false,Rx,0,8,93,83,00,00,00,00,02,E0,
0,00000131,false,Rx,0,8,93,83,00,00,00,00,02,E0,
0,00000131,false,Rx,0,8,93,83,00,00,00,00,02,E0,
0,00000131,false,Rx,0,8,93,83,00,00,00,00,02,E0,
0,00000131,false,Rx,0,8,93,83,00,00,00,00,02,E0,
0,00000131,false,Rx,0,8,93,83,00,00,00,00,02,E0,
0,00000131,false,Rx,0,8,93,83,00,00,00,00,02,E0,
0,00000131,false,Rx,0,8,93,83,00,00,00,00,02,E0,
0,00000131,false,Rx,0,8,93,83,00,00,00,00,02,E0,
0,00000131,false,Rx,0,8,93,83,00,00,00,00,02,E0,
0,00000131,false,Rx,0,8,93,83,00,00,00,00,02,E0,
0,00000131,false,Rx,0,8,93,83,00,00,00,00,02,E0,
0,00000131,false,Rx,0,8,93,83,00,00,00,00,02,E0,
0,00000131,false,Rx,0,8,93,83,00,00,00,00,02,E0,
0,00000131,false,Rx,0,8,93,83,00,00,00,00,02,E0,
0,00000131,false,Rx,0,8,93,83,00,00,00,00,02,E0,
0,00000131,false,Rx,0,8,93,83,00,00,00,00,02,E0,
0,00000131,false,Rx,0,8,93,83,00,00,00,00,02,E0,
0,00000131,false,Rx,0,8,93,83,00,00,00,00,02,E0,
0,00000131,false,Rx,0,8,93,83,00,00,00,00,02,E0,
0,00000131,false,Rx,0,8,93,83,00,00,00,00,02,E0,
0,00000131,false,Rx,0,8,93,83,00,00,00,00,02,E0,
0,00000131,false,Rx,0,8,93,83,00,00,00,00,02,E0,
0,00000131,false,Rx,0,8,93,83,00,00,00,00,02,E0,
0,00000131,false,Rx,0,8,93,83,00,00,00,00,02,E0,
0,00000131,false,Rx,0,8,93,83,00,00,00,00,02,E0,
0,00000131,false,Rx,0,8,93,83,00,00,00,00,02,E0,
0,00000131,false,Rx,0,8,93,83,00,00,00,00,02,E0,
0,00000131,false,Rx,0,8,93,83,00,00,00,00,02,E0,
0,00000131,false,Rx,0,8,93,83,00,00,00,00,02,E0,
0,00000131,false,Rx,0,8,93,83,00,00,00,00,02,E0,
0,00000131,false,Rx,0,8,93,83,00,00,00,00,02,E0,
0,00000131,false,Rx,0,8,93,83,00,00,00,00,02,E0,
0,00000131,false,Rx,0,8,93,83,00,00,00,00,02,E0,
0,00000131,false,Rx,0,8,93,83,00,00,00,00,02,E0,
0,00000131,false,Rx,0,8,93,83,00,00,00,00,02,E0,
0,00000131,false,Rx,0,8,93,83,00,00,00,00,02,E0,
0,00000131,false,Rx,0,8,93,83,00,00,00,00,02,E0,
0,00000131,false,Rx,0,8,93,83,00,00,00,00,02,E0,
0,00000131,false,Rx,0,8,93,83,00,00,00,00,02,E0,
0,00000131,false,Rx,0,8,93,83,00,00,00,00,02,E0,
0,00000131,false,Rx,0,8,93,83,00,00,00,00,02,E0,
0,00000131,false,Rx,0,8,93,83,00,00,00,00,02,E0,
0,00000131,false,Rx,0,8,93,83,00,00,00,00,02,E0,
0,00000131,false,Rx,0,8,93,83,00,00,00,00,02,E0,
0,00000131,false,Rx,0,8,93,83,00,00,00,00,02,E0,
0,00000131,false,Rx,0,8,93,83,00,00,00,00,02,E0,
0,00000131,false,Rx,0,8,93,83,00,00,00,00,02,E0,
0,00000131,false,Rx,0,8,93,83,00,00,00,00,02,E0,
0,00000131,false,Rx,0,8,93,83,00,00,00,00,02,E0,
0,00000131,false,Rx,0,8,93,83,00,00,00,00,02,E0,
0,00000131,false,Rx,0,8,93,83,00,00,00,00,02,E0,
0,00000131,false,Rx,0,8,93,83,00,00,00,00,02,E0,
0,00000131,false,Rx,0,8,93,83,00,00,00,00,02,E0,
0,00000131,false,Rx,0,8,93,83,00,00,00,00,02,E0,
0,00000131,false,Rx,0,8,93,83,00,00,00,00,02,E0,
0,00000131,false,Rx,0,8,93,83,00,00,00,00,02,E0,
0,00000131,false,Rx,0,8,93,83,00,00,00,00,02,E0,
0,00000131,false,Rx,0,8,93,83,00,00,00,00,02,E0,
0,00000131,false,Rx,0,8,93,83,00,00,00,00,02,E0,
0,00000131,false,Rx,0,8,93,83,00,00,00,00,02,E0,
0,00000131,false,Rx,0,8,93,82,00,00,00,00,02,E0,
0,00000131,false,Rx,0,8,10,02,00,00,00,00,02,E0,
0,00000131,false,Rx,0,8,10,02,00,00,00,00,02,E0,
0,00000131,false,Rx,0,8,10,02,00,00,00,00,02,E0,
0,00000131,false,Rx,0,8,10,02,00,00,00,00,02,E0,
0,00000131,false,Rx,0,8,10,02,00,00,00,00,02,E0,
0,00000131,false,Rx,0,8,10,02,00,00,00,00,02,E0,
0,00000131,false,Rx,0,8,10,02,00,00,00,00,02,E0,
0,00000131,false,Rx,0,8,10,02,00,00,00,00,02,E0,
0,00000131,false,Rx,0,8,10,02,00,00,00,00,02,E0,
0,00000131,false,Rx,0,8,10,02,00,00,00,00,02,E0,
0,00000131,false,Rx,0,8,10,02,00,00,00,00,02,E0,
0,00000131,false,Rx,0,8,10,02,00,00,00,00,02,E0,
0,00000131,false,Rx,0,8,10,02,00,00,00,00,02,E0,
0,00000131,false,Rx,0,8,10,02,00,00,00,00,02,E0,
0,00000131,false,Rx,0,8,10,02,00,00,00,00,02,E0,
0,00000131,false,Rx,0,8,10,02,00,00,00,00,02,E0,
0,00000131,false,Rx,0,8,10,02,00,00,00,00,02,E0,
0,00000131,false,Rx,0,8,10,02,00,00,00,00,02,E0,
0,00000131,false,Rx,0,8,10,02,00,00,00,00,02,E0,
0,00000131,false,Rx,0,8,10,02,00,00,00,00,02,E0,
0,00000131,false,Rx,0,8,10,02,00,00,00,00,02,E0,
0,00000131,false,Rx,0,8,10,02,00,00,00,00,02,E0,
0,00000131,false,Rx,0,8,10,02,00,00,00,00,02,E0,
0,00000131,false,Rx,0,8,10,02,00,00,00,00,02,E0,
0,00000131,false,Rx,0,8,10,02,00,00,00,00,02,E0,
0,00000131,false,Rx,0,8,10,02,00,00,00,00,02,E0,
0,00000131,false,Rx,0,8,10,02,00,00,00,00,02,E0,
0,00000131,false,Rx,0,8,10,02,00,00,00,00,02,E0,
0,00000131,false,Rx,0,8,10,02,00,00,00,00,02,E0,
0,00000131,false,Rx,0,8,10,02,00,00,00,00,02,E0,
0,00000131,false,Rx,0,8,10,02,00,00,00,00,02,E0,
0,00000131,false,Rx,0,8,10,02,00,00,00,00,02,E0,
0,00000131,false,Rx,0,8,10,02,00,00,00,00,02,E0,
0,00000131,false,Rx,0,8,10,02,00,00,00,00,02,E0,
0,00000131,false,Rx,0,8,10,02,00,00,00,00,02,E0,
0,00000131,false,Rx,0,8,10,02,00,00,00,00,02,E0,
0,00000131,false,Rx,0,8,10,02,00,00,00,00,02,E0,
0,00000131,false,Rx,0,8,10,02,00,00,00,00,02,E0,
0,00000131,false,Rx,0,8,10,02,00,00,00,00,02,E0,
0,00000131,false,Rx,0,8,10,02,00,00,00,00,02,E0,
0,00000131,false,Rx,0,8,10,02,00,00,00,00,02,E0,
0,00000131,false,Rx,0,8,10,02,00,00,00,00,02,E0,
0,00000131,false,Rx,0,8,10,02,00,00,00,00,02,E0,
0,00000131,false,Rx,0,8,10,02,00,00,00,00,02,E0,
0,00000131,false,Rx,0,8,10,02,00,00,00,00,02,E0,
0,00000131,false,Rx,0,8,10,02,00,00,00,00,02,E0,
0,00000131,false,Rx,0,8,10,02,00,00,00,00,02,E0,
0,00000131,false,Rx,0,8,10,02,00,00,00,00,02,E0,
0,00000131,false,Rx,0,8,10,02,00,00,00,00,02,E0,
0,00000131,false,Rx,0,8,10,02,00,00,00,00,02,E0,
0,00000131,false,Rx,0,8,10,02,00,00,00,00,02,E0,
0,00000131,false,Rx,0,8,10,02,00,00,00,00,02,E0,
0,00000131,false,Rx,0,8,10,02,00,00,00,00,02,E0,
0,00000131,false,Rx,0,8,10,02,00,00,00,00,02,E0,
0,00000131,false,Rx,0,8,10,02,00,00,00,00,02,E0,
0,00000131,false,Rx,0,8,93,83,00,00,00,00,00,00,
0,00000131,false,Rx,0,8,93,83,00,00,00,00,00,00,
0,00000131,false,Rx,0,8,93,83,00,00,00,00,00,00,
0,00000131,false,Rx,0,8,93,83,00,00,00,00,00,00,
0,00000131,false,Rx,0,8,93,83,00,00,00,00,00,00,
0,00000131,false,Rx,0,8,93,83,00,00,00,00,02,E0,
0,00000131,false,Rx,0,8,D3,DF,00,00,00,00,02,E0,
0,00000131,false,Rx,0,8,D3,DF,00,00,00,00,02,E0,
0,00000131,false,Rx,0,8,D3,DF,00,00,00,00,02,E0,
0,00000131,false,Rx,0,8,D3,DF,00,00,00,00,02,E0,
0,00000131,false,Rx,0,8,D3,DF,00,00,00,00,02,E0,
0,00000131,false,Rx,0,8,D3,DF,00,00,00,00,02,E0,
0,00000131,false,Rx,0,8,D3,DF,00,00,00,00,02,E0,
0,00000131,false,Rx,0,8,D3,DF,00,00,00,00,02,E0,
0,00000131,false,Rx,0,8,D3,DF,00,00,00,00,02,E0,
0,00000131,false,Rx,0,8,D3,DF,00,00,00,00,02,E0,
0,00000131,false,Rx,0,8,D3,DF,00,00,00,00,02,E0,
0,00000131,false,Rx,0,8,D3,DF,00,00,00,00,02,E0,
0,00000131,false,Rx,0,8,D3,DF,00,00,00,00,02,E0,
0,00000131,false,Rx,0,8,D3,DF,00,00,00,00,02,E0,
0,00000131,false,Rx,0,8,D3,DF,00,00,00,00,02,E0,
0,00000131,false,Rx,0,8,D3,DF,00,00,00,00,02,E0,
0,00000131,false,Rx,0,8,D3,DF,00,00,00,00,02,E0,
0,00000131,false,Rx,0,8,D3,DF,00,00,00,00,02,E0,
0,00000131,false,Rx,0,8,D3,DF,00,00,00,00,02,E0,
0,00000131,false,Rx,0,8,D3,DF,00,00,00,00,02,E0,
0,00000131,false,Rx,0,8,D3,DF,00,00,00,00,02,E0,
0,00000131,false,Rx,0,8,D3,DF,00,00,00,00,02,E0,
0,00000131,false,Rx,0,8,D3,DF,00,00,00,00,02,E0,
0,00000131,false,Rx,0,8,D3,DF,00,00,00,00,02,E0,
0,00000131,false,Rx,0,8,D3,DF,00,00,00,00,02,E0,
0,00000131,false,Rx,0,8,D3,DF,00,00,00,00,02,E0,
0,00000131,false,Rx,0,8,D3,DF,00,00,00,00,02,E0,
0,00000131,false,Rx,0,8,D3,DF,00,00,00,00,02,E0,
0,00000131,false,Rx,0,8,D3,DF,00,00,00,00,02,E0,
0,00000131,false,Rx,0,8,D3,DF,00,00,00,00,02,E0,
0,00000131,false,Rx,0,8,D3,DF,00,00,00,00,02,E0,
0,00000131,false,Rx,0,8,D3,DF,00,00,00,00,02,E0,
0,00000131,false,Rx,0,8,D3,DF,00,00,00,00,02,E0,
0,00000131,false,Rx,0,8,D3,DF,00,00,00,00,02,E0,
0,00000131,false,Rx,0,8,D3,DF,00,00,00,00,02,E0,
0,00000131,false,Rx,0,8,D3,DF,00,00,00,00,02,E0,
0,00000131,false,Rx,0,8,D3,DF,00,00,00,00,02,E0,
0,00000131,false,Rx,0,8,D3,DF,00,00,00,00,02,E0,
0,00000131,false,Rx,0,8,D3,DF,00,00,00,00,02,E0,
0,00000131,false,Rx,0,8,D3,DF,00,00,00,00,02,E0,
0,00000131,false,Rx,0,8,D3,DF,00,00,00,00,02,E0,
0,00000131,false,Rx,0,8,D3,DF,00,00,00,00,02,E0,
0,00000131,false,Rx,0,8,D3,DF,00,00,00,00,02,E0,
0,00000131,false,Rx,0,8,D3,DF,00,00,00,00,02,E0,
0,00000131,false,Rx,0,8,D3,DF,00,00,00,00,02,E0,
0,00000131,false,Rx,0,8,D3,DF,00,00,00,00,02,E0,
0,00000131,false,Rx,0,8,D3,DF,00,00,00,00,02,E0,
0,00000131,false,Rx,0,8,D3,DF,00,00,00,00,02,E0,
0,00000131,false,Rx,0,8,D3,DF,00,00,00,00,02,E0,
0,00000131,false,Rx,0,8,D3,DF,00,00,00,00,02,E0,
0,00000131,false,Rx,0,8,D3,DF,00,00,00,00,02,E0,
0,00000131,false,Rx,0,8,D3,DF,00,00,00,00,02,E0,
0,00000131,false,Rx,0,8,D3,DF,00,00,00,00,02,E0,
0,00000131,false,Rx,0,8,D3,DF,00,00,00,00,02,E0,
0,00000131,false,Rx,0,8,D3,DF,00,00,00,00,02,E0,
0,00000131,false,Rx,0,8,D3,DF,00,00,00,00,02,E0,
0,00000131,false,Rx,0,8,D3,DF,00,00,00,00,02,E0,
0,00000131,false,Rx,0,8,D3,DF,00,00,00,00,02,E0,
0,00000131,false,Rx,0,8,D3,DF,00,00,00,00,02,E0,
0,00000131,false,Rx,0,8,D3,DF,00,00,00,00,02,E0,
0,00000131,false,Rx,0,8,D3,DF,00,00,00,00,02,E0,
0,00000131,false,Rx,0,8,D3,DF,00,00,00,00,02,E0,
0,00000131,false,Rx,0,8,D3,DF,00,00,00,00,02,E0,
0,00000131,false,Rx,0,8,D3,DF,00,00,00,00,02,E0,
0,00000131,false,Rx,0,8,D3,DF,00,00,00,00,02,E0,
0,00000131,false,Rx,0,8,D3,DF,00,00,00,00,02,E0,
0,00000131,false,Rx,0,8,D3,DF,00,00,00,00,02,E0,
0,00000131,false,Rx,0,8,D3,DF,00,00,00,00,02,E0,
0,00000131,false,Rx,0,8,D3,DF,00,00,00,00,02,E0,
0,00000131,false,Rx,0,8,D3,DF,00,00,00,00,02,E0,
0,00000131,false,Rx,0,8,D3,DF,00,00,00,00,02,E0,
0,00000131,false,Rx,0,8,D3,DF,00,00,00,00,02,E0,
0,00000131,false,Rx,0,8,D3,DF,00,00,00,00,02,E0,
0,00000131,false,Rx,0,8,D3,DF,00,00,00,00,02,E0,
0,00000131,false,Rx,0,8,D3,DF,00,00,00,00,02,E0,
0,00000131,false,Rx,0,8,D3,DF,00,00,00,00,02,E0,
0,00000131,false,Rx,0,8,D3,DF,00,00,00,00,02,E0,
0,00000131,false,Rx,0,8,D3,DF,00,00,00,00,02,E0,
0,00000131,false,Rx,0,8,D3,DF,00,00,00,00,02,E0,
0,00000131,false,Rx,0,8,D3,DF,00,00,00,00,02,E0,
0,00000131,false,Rx,0,8,D3,DF,00,00,00,00,02,E0,
0,00000131,false,Rx,0,8,D3,DF,00,00,00,00,02,E0,
0,00000131,false,Rx,0,8,D3,DF,00,00,00,00,02,E0,
0,00000131,false,Rx,0,8,D3,DF,00,00,00,00,02,E0,
0,00000131,false,Rx,0,8,D3,DF,00,00,00,00,02,E0,
0,00000131,false,Rx,0,8,D3,DF,00,00,00,00,02,E0,
0,00000131,false,Rx,0,8,D3,DF,00,00,00,00,02,E0,
0,00000131,false,Rx,0,8,D3,DF,00,00,00,00,02,E0,
0,00000131,false,Rx,0,8,D3,DF,00,00,00,00,02,E0,
0,00000131,false,Rx,0,8,D3,DF,00,00,00,00,02,E0,
0,00000131,false,Rx,0,8,D3,DF,00,00,00,00,02,E0,
0,00000131,false,Rx,0,8,D3,DF,00,00,00,00,02,E0,
0,00000131,false,Rx,0,8,D3,DF,00,00,00,00,02,E0,
0,00000131,false,Rx,0,8,D3,DF,00,00,00,00,02,E0,
0,00000131,false,Rx,0,8,D3,DF,00,00,00,00,02,E0,
0,00000131,false,Rx,0,8,D3,DF,00,00,00,00,02,E0,
0,00000131,false,Rx,0,8,D3,DF,00,00,00,00,02,E0,
0,00000131,false,Rx,0,8,D3,DF,00,00,00,00,02,E0,
0,00000131,false,Rx,0,8,D3,DF,00,00,00,00,02,E0,
0,00000131,false,Rx,0,8,D3,DF,00,00,00,00,02,E0,
0,00000131,false,Rx,0,8,D3,DF,00,00,00,00,02,E0,
0,00000131,false,Rx,0,8,D3,DF,00,00,00,00,02,E0,
0,00000131,false,Rx,0,8,D3,DF,00,00,00,00,02,E0,
0,00000131,false,Rx,0,8,D3,DF,00,00,00,00,02,E0,
0,00000131,false,Rx,0,8,D3,DF,00,00,00,00,02,E0,
0,00000131,false,Rx,0,8,D3,DF,00,00,00,00,02,E0,
0,00000131,false,Rx,0,8,D3,DF,00,00,00,00,02,E0,
0,00000131,false,Rx,0,8,D3,DF,00,00,00,00,02,E0,
0,00000131,false,Rx,0,8,D3,DF,00,00,00,00,02,E0,
0,00000131,false,Rx,0,8,D3,DF,00,00,00,00,02,E0,
0,00000131,false,Rx,0,8,D3,DF,00,00,00,00,02,E0,
0,00000131,false,Rx,0,8,D3,DF,00,00,00,00,02,E0,
0,00000131,false,Rx,0,8,D3,DF,00,00,00,00,02,E0,
0,00000131,false,Rx,0,8,D3,DF,00,00,00,00,02,E0,
0,00000131,false,Rx,0,8,D3,DF,00,00,00,00,02,E0,
0,00000131,false,Rx,0,8,D3,DF,00,00,00,00,02,E0,
0,00000131,false,Rx,0,8,D3,DF,00,00,00,00,02,E0,
0,00000131,false,Rx,0,8,D3,DF,00,00,00,00,02,E0,
0,00000131,false,Rx,0,8,D3,DF,00,00,00,00,02,E0,
0,00000131,false,Rx,0,8,D3,DF,00,00,00,00,02,E0,
0,00000131,false,Rx,0,8,D3,DF,00,00,00,00,02,E0,
0,00000131,false,Rx,0,8,D3,DF,00,00,00,00,02,E0,
0,00000131,false,Rx,0,8,D3,DF,00,00,00,00,02,E0,
0,00000131,false,Rx,0,8,D3,DF,00,00,00,00,02,E0,
0,00000131,false,Rx,0,8,D3,DF,00,00,00,00,02,E0,
0,00000131,false,Rx,0,8,D3,DF,00,00,00,00,02,E0,
0,00000131,false,Rx,0,8,D3,DF,00,00,00,00,02,E0,
0,00000131,false,Rx,0,8,D3,DF,00,00,00,00,02,E0,
0,00000131,false,Rx,0,8,D3,DF,00,00,00,00,02,E0,
0,00000131,false,Rx,0,8,D3,DF,00,00,00,00,02,E0,
0,00000131,false,Rx,0,8,D3,DF,00,00,00,00,02,E0,
0,00000131,false,Rx,0,8,D3,DF,00,00,00,00,02,E0,
0,00000131,false,Rx,0,8,D3,DF,00,00,00,00,02,E0,
0,00000131,false,Rx,0,8,D3,DF,00,00,00,00,02,E0,
0,00000131,false,Rx,0,8,D3,DF,00,00,00,00,02,E0,
0,00000131,false,Rx,0,8,D3,DF,00,00,00,00,02,E0,
0,00000131,false,Rx,0,8,D3,DF,00,00,00,00,02,E0,
0,00000131,false,Rx,0,8,D3,DF,00,00,00,00,02,E0,
0,00000131,false,Rx,0,8,D3,DF,00,00,00,00,02,E0,
0,00000131,false,Rx,0,8,D3,DF,00,00,00,00,02,E0,
0,00000131,false,Rx,0,8,D3,DF,00,00,00,00,02,E0,
0,00000131,false,Rx,0,8,D3,DF,00,00,00,00,02,E0,
0,00000131,false,Rx,0,8,D3,DF,00,00,00,00,02,E0,
0,00000131,false,Rx,0,8,D3,DF,00,00,00,00,02,E0,
0,00000131,false,Rx,0,8,D3,DF,00,00,00,00,02,E0,
0,00000131,false,Rx,0,8,D3,DF,00,00,00,00,02,E0,
0,00000131,false,Rx,0,8,D3,DF,00,00,00,00,02,E0,
0,00000131,false,Rx,0,8,D3,DF,00,00,00,00,02,E0,
0,00000131,false,Rx,0,8,D3,DF,00,00,00,00,02,E0,
0,00000131,false,Rx,0,8,D3,DF,00,00,00,00,02,E0,
0,00000131,false,Rx,0,8,D3,DF,00,00,00,00,02,E0,
0,00000131,false,Rx,0,8,D3,DF,00,00,00,00,02,E0,
0,00000131,false,Rx,0,8,D3,DF,00,00,00,00,02,E0,
0,00000131,false,Rx,0,8,D3,DF,00,00,00,00,02,E0,
0,00000131,false,Rx,0,8,D3,DF,00,00,00,00,02,E0,
0,00000131,false,Rx,0,8,D3,DF,00,00,00,00,02,E0,
0,00000131,false,Rx,0,8,D3,DF,00,00,00,00,02,E0,
0,00000131,false,Rx,0,8,D3,DF,00,00,00,00,02,E0,
0,00000131,false,Rx,0,8,D3,DF,00,00,00,00,02,E0,
0,00000131,false,Rx,0,8,D3,DF,00,00,00,00,02,E0,
0,00000131,false,Rx,0,8,D3,DF,00,00,00,00,02,E0,
0,00000131,false,Rx,0,8,D3,DF,00,00,00,00,02,E0,
0,00000131,false,Rx,0,8,D3,DF,00,00,00,00,02,E0,
0,00000131,false,Rx,0,8,D3,DF,00,00,00,00,02,E0,
0,00000131,false,Rx,0,8,D3,DF,00,00,00,00,02,E0,
0,00000131,false,Rx,0,8,D3,DF,00,00,00,00,02,E0,
0,00000131,false,Rx,0,8,D3,DF,00,00,00,00,02,E0,
0,00000131,false,Rx,0,8,D3,DF,00,00,00,00,02,E0,
0,00000131,false,Rx,0,8,D3,DF,00,00,00,00,02,E0,
0,00000131,false,Rx,0,8,D3,DF,00,00,00,00,02,E0,
0,00000131,false,Rx,0,8,D3,DF,00,00,00,00,02,E0,
0,00000131,false,Rx,0,8,D3,DF,00,00,00,00,02,E0,
0,00000131,false,Rx,0,8,D3,DF,00,00,00,00,02,E0,
0,00000131,false,Rx,0,8,D3,DF,00,00,00,00,02,E0,
0,00000131,false,Rx,0,8,D3,DF,00,00,00,00,02,E0,
0,00000131,false,Rx,0,8,D3,DF,00,00,00,00,02,E0,
0,00000131,false,Rx,0,8,D3,DF,00,00,00,00,02,E0,
0,00000131,false,Rx,0,8,D3,DF,00,00,00,00,02,E0,
0,00000131,false,Rx,0,8,D3,DF,00,00,00,00,02,E0,
0,00000131,false,Rx,0,8,D3,DF,00,00,00,00,02,E0,
0,00000131,false,Rx,0,8,D3,DF,00,00,00,00,02,E0,
0,00000131,false,Rx,0,8,D3,DF,00,00,00,00,02,E0,
0,00000131,false,Rx,0,8,D3,DF,00,00,00,00,02,E0,
0,00000131,false,Rx,0,8,D3,DF,00,00,00,00,02,E0,
0,00000131,false,Rx,0,8,D3,DF,00,00,00,00,02,E0,
0,00000131,false,Rx,0,8,D3,DF,00,00,00,00,02,E0,
0,00000131,false,Rx,0,8,D3,DF,00,00,00,00,02,E0,
0,00000131,false,Rx,0,8,D3,DF,00,00,00,00,02,E0,
0,00000131,false,Rx,0,8,D3,DF,00,00,00,00,02,E0,
0,00000131,false,Rx,0,8,D3,DF,00,00,00,00,02,E0,
0,00000131,false,Rx,0,8,D3,DF,00,00,00,00,02,E0,
0,00000131,false,Rx,0,8,D3,DF,00,00,00,00,02,E0,
0,00000131,false,Rx,0,8,D3,DF,00,00,00,00,02,E0,
0,00000131,false,Rx,0,8,D3,DF,00,00,00,00,02,E0,
0,00000131,false,Rx,0,8,D3,DF,00,00,00,00,02,E0,
0,00000131,false,Rx,0,8,D3,DF,00,00,00,00,02,E0,
0,00000131,false,Rx,0,8,D3,DF,00,00,00,00,02,E0,
0,00000131,false,Rx,0,8,D3,DF,00,00,00,00,02,E0,
0,00000131,false,Rx,0,8,D3,DF,00,00,00,00,02,E0,
0,00000131,false,Rx,0,8,D3,DF,00,00,00,00,02,E0,
0,00000131,false,Rx,0,8,D3,DF,00,00,00,00,02,E0,
0,00000131,false,Rx,0,8,D3,DF,00,00,00,00,02,E0,
0,00000131,false,Rx,0,8,D3,DF,00,00,00,00,02,E0,
0,00000131,false,Rx,0,8,D3,DF,00,00,00,00,02,E0,
0,00000131,false,Rx,0,8,D3,DF,00,00,00,00,02,E0,
0,00000131,false,Rx,0,8,D3,DF,00,00,00,00,02,E0,
0,00000131,false,Rx,0,8,D3,DF,00,00,00,00,02,E0,
0,00000131,false,Rx,0,8,D3,DF,00,00,00,00,02,E0,
0,00000131,false,Rx,0,8,D3,DF,00,00,00,00,02,E0,
0,00000131,false,Rx,0,8,D3,DF,00,00,00,00,02,E0,
0,00000131,false,Rx,0,8,D3,DF,00,00,00,00,02,E0,
0,00000131,false,Rx,0,8,D3,DF,00,00,00,00,02,E0,
0,00000131,false,Rx,0,8,D3,DF,00,00,00,00,02,E0,
0,00000131,false,Rx,0,8,D3,DF,00,00,00,00,02,E0,
0,00000131,false,Rx,0,8,D3,DF,00,00,00,00,02,E0,
0,00000131,false,Rx,0,8,D3,DF,00,00,00,00,02,E0,
0,00000131,false,Rx,0,8,D3,DF,00,00,00,00,02,E0,
0,00000131,false,Rx,0,8,D3,DF,00,00,00,00,02,E0,
0,00000131,false,Rx,0,8,D3,DF,00,00,00,00,02,E0,
0,00000131,false,Rx,0,8,D3,DF,00,00,00,00,02,E0,
0,00000131,false,Rx,0,8,D3,DF,00,00,00,00,02,E0,
0,00000131,false,Rx,0,8,D3,DF,00,00,00,00,02,E0,
0,00000131,false,Rx,0,8,D3,DF,00,00,00,00,02,E0,
0,00000131,false,Rx,0,8,D3,DF,00,00,00,00,02,E0,
0,00000131,false,Rx,0,8,D3,DF,00,00,00,00,02,E0,
0,00000131,false,Rx,0,8,D3,DF,00,00,00,00,02,E0,
0,00000131,false,Rx,0,8,D3,DF,00,00,00,00,02,E0,
0,00000131,false,Rx,0,8,D3,DF,00,00,00,00,02,E0,
0,00000131,false,Rx,0,8,D3,DF,00,00,00,00,02,E0,
0,00000131,false,Rx,0,8,D3,DF,00,00,00,00,02,E0,
0,00000131,false,Rx,0,8,D3,DF,00,00,00,00,02,E0,
0,00000131,false,Rx,0,8,D3,DF,00,00,00,00,02,E0,
0,00000131,false,Rx,0,8,D3,DF,00,00,00,00,02,E0,
0,00000131,false,Rx,0,8,D3,DF,00,00,00,00,02,E0,
0,00000131,false,Rx,0,8,D3,DF,00,00,00,00,02,E0,
0,00000131,false,Rx,0,8,D3,DF,00,00,00,00,02,E0,
0,00000131,false,Rx,0,8,D3,DF,00,00,00,00,02,E0,
0,00000131,false,Rx,0,8,D3,DF,00,00,00,00,02,E0,
0,00000131,false,Rx,0,8,D3,DF,00,00,00,00,02,E0,
0,00000131,false,Rx,0,8,D3,DF,00,00,00,00,02,E0,
0,00000131,false,Rx,0,8,D3,DF,00,00,00,00,02,E0,
0,00000131,false,Rx,0,8,D3,DF,00,00,00,00,02,E0,
0,00000131,false,Rx,0,8,D3,DF,00,00,00,00,02,E0,
0,00000131,false,Rx,0,8,D3,DF,00,00,00,00,02,E0,
0,00000131,false,Rx,0,8,D3,DF,00,00,00,00,02,E0,
0,00000131,false,Rx,0,8,D3,DF,00,00,00,00,02,E0,
0,00000131,false,Rx,0,8,D3,DF,00,00,00,00,02,E0,
0,00000131,false,Rx,0,8,D3,DF,00,00,00,00,02,E0,
0,00000131,false,Rx,0,8,D3,DF,00,00,00,00,02,E0,
0,00000131,false,Rx,0,8,D3,DF,00,00,00,00,02,E0,
0,00000131,false,Rx,0,8,D3,DF,00,00,00,00,02,E0,
0,00000131,false,Rx,0,8,D3,DF,00,00,00,00,02,E0,
0,00000131,false,Rx,0,8,D3,DF,00,00,00,00,02,E0,
0,00000131,false,Rx,0,8,D3,DF,00,00,00,00,02,E0,
0,00000131,false,Rx,0,8,D3,DF,00,00,00,00,02,E0,
0,00000131,false,Rx,0,8,D3,DF,00,00,00,00,02,E0,
0,00000131,false,Rx,0,8,D3,DF,00,00,00,00,02,E0,
0,00000131,false,Rx,0,8,D3,DF,00,00,00,00,02,E0,
0,00000131,false,Rx,0,8,D3,DF,00,00,00,00,02,E0,
0,00000131,false,Rx,0,8,D3,DF,00,00,00,00,02,E0,
0,00000131,false,Rx,0,8,D3,DF,00,00,00,00,02,E0,
0,00000131,false,Rx,0,8,D3,DF,00,00,00,00,02,E0,
0,00000131,false,Rx,0,8,D3,DF,00,00,00,00,02,E0,
0,00000131,false,Rx,0,8,D3,DF,00,00,00,00,02,E0,
0,00000131,false,Rx,0,8,D3,DF,00,00,00,00,02,E0,
0,00000131,false,Rx,0,8,D3,DF,00,00,00,00,02,E0,
0,00000131,false,Rx,0,8,D3,DF,00,00,00,00,02,E0,
0,00000131,false,Rx,0,8,D3,DF,00,00,00,00,02,E0,
0,00000131,false,Rx,0,8,D3,DF,00,00,00,00,02,E0,
0,00000131,false,Rx,0,8,D3,DF,00,00,00,00,02,E0,
0,00000131,false,Rx,0,8,D3,DF,00,00,00,00,02,E0,
0,00000131,false,Rx,0,8,D3,DF,00,00,00,00,02,E0,
0,00000131,false,Rx,0,8,D3,DF,00,00,00,00,02,E0,
0,00000131,false,Rx,0,8,D3,DF,00,00,00,00,02,E0,
0,00000131,false,Rx,0,8,D3,DF,00,00,00,00,02,E0,
0,00000131,false,Rx,0,8,D3,DF,00,00,00,00,02,E0,
0,00000131,false,Rx,0,8,D3,DF,00,00,00,00,02,E0,
0,00000131,false,Rx,0,8,D3,DF,00,00,00,00,02,E0,
0,00000131,false,Rx,0,8,D3,DF,00,00,00,00,02,E0,
0,00000131,false,Rx,0,8,D3,DF,00,00,00,00,02,E0,
0,00000131,false,Rx,0,8,D3,DF,00,00,00,00,02,E0,
0,00000131,false,Rx,0,8,D3,DF,00,00,00,00,02,E0,
0,00000131,false,Rx,0,8,D3,DF,00,00,00,00,02,E0,
0,00000131,false,Rx,0,8,D3,DF,00,00,00,00,02,E0,
0,00000131,false,Rx,0,8,D3,DF,00,00,00,00,02,E0,
0,00000131,false,Rx,0,8,D3,DF,00,00,00,00,02,E0,
0,00000131,false,Rx,0,8,D3,DF,00,00,00,00,02,E0,
0,00000131,false,Rx,0,8,D3,DF,00,00,00,00,02,E0,
0,00000131,false,Rx,0,8,D3,DF,00,00,00,00,02,E0,
0,00000131,false,Rx,0,8,D3,DF,00,00,00,00,02,E0,
0,00000131,false,Rx,0,8,D3,DF,00,00,00,00,02,E0,
0,00000131,false,Rx,0,8,D3,DF,00,00,00,00,02,E0,
0,00000131,false,Rx,0,8,D3,DF,00,00,00,00,02,E0,
0,00000131,false,Rx,0,8,D3,DF,00,00,00,00,02,E0,
0,00000131,false,Rx,0,8,D3,DF,00,00,00,00,02,E0,
0,00000131,false,Rx,0,8,D3,DF,00,00,00,00,02,E0,
0,00000131,false,Rx,0,8,D3,DF,00,00,00,00,02,E0,
0,00000131,false,Rx,0,8,D3,DF,00,00,00,00,02,E0,
0,00000131,false,Rx,0,8,D3,DF,00,00,00,00,02,E0,
0,00000131,false,Rx,0,8,D3,DF,00,00,00,00,02,E0,
0,00000131,false,Rx,0,8,D3,DF,00,00,00,00,02,E0,
0,00000131,false,Rx,0,8,D3,DF,00,00,00,00,02,E0,
0,00000131,false,Rx,0,8,D3,DF,00,00,00,00,02,E0,
0,00000131,false,Rx,0,8,D3,DF,00,00,00,00,02,E0,
0,00000131,false,Rx,0,8,D3,DF,00,00,00,00,02,E0,
0,00000131,false,Rx,0,8,D3,DF,00,00,00,00,02,E0,
0,00000131,false,Rx,0,8,D3,DF,00,00,00,00,02,E0,
0,00000131,false,Rx,0,8,D3,DF,00,00,00,00,02,E0,
0,00000131,false,Rx,0,8,D3,DF,00,00,00,00,02,E0,
0,00000131,false,Rx,0,8,D3,DF,00,00,00,00,02,E0,
0,00000131,false,Rx,0,8,D3,DF,00,00,00,00,02,E0,
0,00000131,false,Rx,0,8,D3,DF,00,00,00,00,02,E0,
0,00000131,false,Rx,0,8,D3,DF,00,00,00,00,02,E0,
0,00000131,false,Rx,0,8,D3,DF,00,00,00,00,02,E0,
0,00000131,false,Rx,0,8,D3,DF,00,00,00,00,02,E0,
0,00000131,false,Rx,0,8,D3,DF,00,00,00,00,02,E0,
0,00000131,false,Rx,0,8,D3,DF,00,00,00,00,02,E0,
0,00000131,false,Rx,0,8,D3,DF,00,00,00,00,02,E0,
0,00000131,false,Rx,0,8,D3,DF,00,00,00,00,02,E0,
0,00000131,false,Rx,0,8,D3,DF,00,00,00,00,02,E0,
0,00000131,false,Rx,0,8,D3,DF,00,00,00,00,02,E0,
0,00000131,false,Rx,0,8,D3,DF,00,00,00,00,02,E0,
0,00000131,false,Rx,0,8,D3,DF,00,00,00,00,02,E0,
0,00000131,false,Rx,0,8,D3,DF,00,00,00,00,02,E0,
0,00000131,false,Rx,0,8,D3,DF,00,00,00,00,02,E0,
0,00000131,false,Rx,0,8,D3,DF,00,00,00,00,02,E0,
0,00000131,false,Rx,0,8,D3,DF,00,00,00,00,02,E0,
0,00000131,false,Rx,0,8,D3,DF,00,00,00,00,02,E0,
0,00000131,false,Rx,0,8,D3,DF,00,00,00,00,02,E0,
0,00000131,false,Rx,0,8,D3,DF,00,00,00,00,02,E0,
0,00000131,false,Rx,0,8,D3,DF,00,00,00,00,02,E0,
0,00000131,false,Rx,0,8,D3,DF,00,00,00,00,02,E0,
0,00000131,false,Rx,0,8,D3,DF,00,00,00,00,02,E0,
0,00000131,false,Rx,0,8,D3,DF,00,00,00,00,02,E0,
0,00000131,false,Rx,0,8,D3,DF,00,00,00,00,02,E0,
0,00000131,false,Rx,0,8,D3,DF,00,00,00,00,02,E0,
0,00000131,false,Rx,0,8,D3,DF,00,00,00,00,02,E0,
0,00000131,false,Rx,0,8,D3,DF,00,00,00,00,02,E0,
0,00000131,false,Rx,0,8,D3,DF,00,00,00,00,02,E0,
0,00000131,false,Rx,0,8,D3,DF,00,00,00,00,02,E0,
0,00000131,false,Rx,0,8,D3,DF,00,00,00,00,02,E0,
0,00000131,false,Rx,0,8,D3,DF,00,00,00,00,02,E0,
0,00000131,false,Rx,0,8,D3,DF,00,00,00,00,02,E0,
0,00000131,false,Rx,0,8,D3,DF,00,00,00,00,02,E0,
0,00000131,false,Rx,0,8,D3,DF,00,00,00,00,02,E0,
0,00000131,false,Rx,0,8,D3,DF,00,00,00,00,02,E0,
0,00000131,false,Rx,0,8,D3,DF,00,00,00,00,02,E0,
0,00000131,false,Rx,0,8,D3,DF,00,00,00,00,02,E0,
0,00000131,false,Rx,0,8,D3,DF,00,00,00,00,02,E0,
0,00000131,false,Rx,0,8,D3,DF,00,00,00,00,02,E0,
0,00000131,false,Rx,0,8,D3,DF,00,00,00,00,02,E0,
0,00000131,false,Rx,0,8,D3,DF,00,00,00,00,02,E0,
0,00000131,false,Rx,0,8,D3,DF,00,00,00,00,02,E0,
0,00000131,false,Rx,0,8,D3,DF,00,00,00,00,02,E0,
0,00000131,false,Rx,0,8,D3,DF,00,00,00,00,02,E0,
0,00000131,false,Rx,0,8,D3,DF,00,00,00,00,02,E0,
0,00000131,false,Rx,0,8,D3,DF,00,00,00,00,02,E0,
0,00000131,false,Rx,0,8,D3,DF,00,00,00,00,02,E0,
0,00000131,false,Rx,0,8,D3,DF,00,00,00,00,02,E0,
0,00000131,false,Rx,0,8,D3,DF,00,00,00,00,02,E0,
0,00000131,false,Rx,0,8,D3,DF,00,00,00,00,02,E0,
0,00000131,false,Rx,0,8,D3,DF,00,00,00,00,02,E0,
0,00000131,false,Rx,0,8,D3,DF,00,00,00,00,02,E0,
0,00000131,false,Rx,0,8,D3,DF,00,00,00,00,02,E0,
0,00000131,false,Rx,0,8,D3,DF,00,00,00,00,02,E0,
0,00000131,false,Rx,0,8,D3,DF,00,00,00,00,02,E0,
0,00000131,false,Rx,0,8,D3,DF,00,00,00,00,02,E0,
0,00000131,false,Rx,0,8,D3,DF,00,00,00,00,02,E0,
0,00000131,false,Rx,0,8,D3,DF,00,00,00,00,02,E0,
0,00000131,false,Rx,0,8,D3,DF,00,00,00,00,02,E0,
0,00000131,false,Rx,0,8,D3,DF,00,00,00,00,02,E0,
0,00000131,false,Rx,0,8,D3,DF,00,00,00,00,02,E0,
0,00000131,false,Rx,0,8,D3,DF,00,00,00,00,02,E0,
0,00000131,false,Rx,0,8,D3,DF,00,00,00,00,02,E0,
0,00000131,false,Rx,0,8,D3,DF,00,00,00,00,02,E0,
0,00000131,false,Rx,0,8,D3,DF,00,00,00,00,02,E0,
0,00000131,false,Rx,0,8,D3,DF,00,00,00,00,02,E0,
0,00000131,false,Rx,0,8,D3,DF,00,00,00,00,02,E0,
0,00000131,false,Rx,0,8,D3,DF,00,00,00,00,02,E0,
0,00000131,false,Rx,0,8,D3,DF,00,00,00,00,02,E0,
0,00000131,false,Rx,0,8,D3,DF,00,00,00,00,02,E0,
0,00000131,false,Rx,0,8,D3,DF,00,00,00,00,02,E0,
0,00000131,false,Rx,0,8,D3,DF,00,00,00,00,02,E0,
0,00000131,false,Rx,0,8,D3,DF,00,00,00,00,02,E0,
0,00000131,false,Rx,0,8,D3,DF,00,00,00,00,02,E0,
0,00000131,false,Rx,0,8,D3,DF,00,00,00,00,02,E0,
0,00000131,false,Rx,0,8,D3,DF,00,00,00,00,02,E0,
0,00000131,false,Rx,0,8,D3,DF,00,00,00,00,02,E0,
0,00000131,false,Rx,0,8,D3,DF,00,00,00,00,02,E0,
0,00000131,false,Rx,0,8,D3,DF,00,00,00,00,02,E0,
0,00000131,false,Rx,0,8,D3,DF,00,00,00,00,02,E0,
0,00000131,false,Rx,0,8,D3,DF,00,00,00,00,02,E0,
0,00000131,false,Rx,0,8,D3,DF,00,00,00,00,02,E0,
0,00000131,false,Rx,0,8,D3,DF,00,00,00,00,02,E0,
0,00000131,false,Rx,0,8,D3,DF,00,00,00,00,02,E0,
0,00000131,false,Rx,0,8,D3,DF,00,00,00,00,02,E0,
0,00000131,false,Rx,0,8,D3,DF,00,00,00,00,02,E0,
0,00000131,false,Rx,0,8,D3,DF,00,00,00,00,02,E0,
0,00000131,false,Rx,0,8,D3,DF,00,00,00,00,02,E0,
0,00000131,false,Rx,0,8,D3,DF,00,00,00,00,02,E0,
0,00000131,false,Rx,0,8,D3,DF,00,00,00,00,02,E0,
0,00000131,false,Rx,0,8,D3,DF,00,00,00,00,02,E0,
0,00000131,false,Rx,0,8,D3,DF,00,00,00,00,02,E0,
0,00000131,false,Rx,0,8,D3,DF,00,00,00,00,02,E0,
0,00000131,false,Rx,0,8,D3,DF,00,00,00,00,02,E0,
0,00000131,false,Rx,0,8,D3,DF,00,00,00,00,02,E0,
0,00000131,false,Rx,0,8,D3,DF,00,00,00,00,02,E0,
0,00000131,false,Rx,0,8,D3,DF,00,00,00,00,02,E0,
0,00000131,false,Rx,0,8,D3,DF,00,00,00,00,02,E0,
0,00000131,false,Rx,0,8,D3,DF,00,00,00,00,02,E0,
0,00000131,false,Rx,0,8,D3,DF,00,00,00,00,02,E0,
0,00000131,false,Rx,0,8,D3,DF,00,00,00,00,02,E0,
0,00000131,false,Rx,0,8,D3,DF,00,00,00,00,02,E0,
0,00000131,false,Rx,0,8,D3,DF,00,00,00,00,02,E0,
0,00000131,false,Rx,0,8,D3,DF,00,00,00,00,02,E0,
0,00000131,false,Rx,0,8,D3,DF,00,00,00,00,02,E0,
0,00000131,false,Rx,0,8,D3,DF,00,00,00,00,02,E0,
0,00000131,false,Rx,0,8,D3,DF,00,00,00,00,02,E0,
0,00000131,false,Rx,0,8,D3,DF,00,00,00,00,02,E0,
0,00000131,false,Rx,0,8,D3,DF,00,00,00,00,02,E0,
0,00000131,false,Rx,0,8,D3,DF,00,00,00,00,02,E0,
0,00000131,false,Rx,0,8,D3,DF,00,00,00,00,02,E0,
0,00000131,false,Rx,0,8,D3,DF,00,00,00,00,02,E0,
0,00000131,false,Rx,0,8,D3,DF,00,00,00,00,02,E0,
0,00000131,false,Rx,0,8,D3,DF,00,00,00,00,02,E0,
0,00000131,false,Rx,0,8,D3,DF,00,00,00,00,02,E0,
0,00000131,false,Rx,0,8,D3,DF,00,00,00,00,02,E0,
0,00000131,false,Rx,0,8,D3,DF,00,00,00,00,02,E0,
0,00000131,false,Rx,0,8,D3,DF,00,00,00,00,02,E0,
0,00000131,false,Rx,0,8,D3,DF,00,00,00,00,02,E0,
0,00000131,false,Rx,0,8,D3,DF,00,00,00,00,02,E0,
0,00000131,false,Rx,0,8,D3,DF,00,00,00,00,02,E0,
0,00000131,false,Rx,0,8,D3,DF,00,00,00,00,02,E0,
0,00000131,false,Rx,0,8,D3,DF,00,00,00,00,02,E0,
0,00000131,false,Rx,0,8,D3,DF,00,00,00,00,02,E0,
0,00000131,false,Rx,0,8,D3,DF,00,00,00,00,02,E0,
0,00000131,false,Rx,0,8,D3,DF,00,00,00,00,02,E0,
0,00000131,false,Rx,0,8,D3,DF,00,00,00,00,02,E0,
0,00000131,false,Rx,0,8,D3,EB,00,00,00,00,03,5A,
0,00000131,false,Rx,0,8,D3,E3,00,00,00,00,03,00,
0,00000131,false,Rx,0,8,D3,EB,00,00,00,00,03,5A,
0,00000131,false,Rx,0,8,D3,E7,00,00,00,00,03,39,
0,00000131,false,Rx,0,8,D3,E7,00,00,00,00,03,39,
0,00000131,false,Rx,0,8,D3,E7,00,00,00,00,03,39,
0,00000131,false,Rx,0,8,D3,E7,00,00,00,00,03,39,
0,00000131,false,Rx,0,8,D3,E7,00,00,00,00,03,39,
0,00000131,false,Rx,0,8,D3,E7,00,00,00,00,03,20,
0,00000131,false,Rx,0,8,D3,DF,00,00,00,00,03,00,
0,00000131,false,Rx,0,8,D3,E7,00,00,00,00,03,20,
0,00000131,false,Rx,0,8,D3,E7,00,00,00,00,03,20,
0,00000131,false,Rx,0,8,D3,E7,00,00,00,00,03,20,
0,00000131,false,Rx,0,8,D3,E7,00,00,00,00,03,20,
0,00000131,false,Rx,0,8,D3,E7,00,00,00,00,03,20,
0,00000131,false,Rx,0,8,D3,E3,00,00,00,00,03,00,
0,00000131,false,Rx,0,8,D3,EB,00,00,00,00,5F,40,
0,00000131,false,Rx,0,8,D3,E7,00,00,00,00,5F,20,
0,00000131,false,Rx,0,8,D3,EB,00,00,00,00,5F,40,
0,00000131,false,Rx,0,8,D3,EB,00,00,00,00,5F,40,
0,00000131,false,Rx,0,8,D3,EB,00,00,00,00,5F,40,
0,00000131,false,Rx,0,8,D3,EB,00,00,00,00,5F,40,
0,00000131,false,Rx,0,8,D3,EB,00,00,00,00,5F,40,
0,00000131,false,Rx,0,8,D3,EB,00,00,00,00,5F,40,
0,00000131,false,Rx,0,8,D3,EB,00,00,00,00,5F,40,
0,00000131,false,Rx,0,8,D3,E7,00,00,00,00,5F,20,
0,00000131,false,Rx,0,8,D3,E7,00,00,00,00,03,20,
0,00000131,false,Rx,0,8,D3,E7,00,00,00,00,03,20,
0,00000131,false,Rx,0,8,93,83,00,00,00,00,02,C0,
0,00000131,false,Rx,0,8,93,83,00,00,00,00,02,C0,
0,00000131,false,Rx,0,8,93,83,00,00,00,00,02,C0,
0,00000131,false,Rx,0,8,93,83,00,00,00,00,03,20,
0,00000131,false,Rx,0,8,D3,E7,00,00,00,00,03,20,
0,00000131,false,Rx,0,8,D3,E7,00,00,00,00,03,20,
0,00000131,false,Rx,0,8,93,83,00,00,00,00,00,00,
0,00000131,false,Rx,0,8,93,83,00,00,00,00,00,00,
0,00000131,false,Rx,0,8,93,83,00,00,00,00,00,00,
0,00000131,false,Rx,0,8,93,83,00,00,00,00,00,00,
0,00000131,false,Rx,0,8,93,83,00,00,00,00,00,00,
0,00000131,false,Rx,0,8,93,83,00,00,00,00,00,00,
0,00000131,false,Rx,0,8,93,83,00,00,00,00,00,00,
0,00000131,false,Rx,0,8,93,83,00,00,00,00,00,00,
0,00000131,false,Rx,0,8,93,83,00,00,00,00,00,00,
0,00000131,false,Rx,0,8,93,83,00,00,00,00,00,00,
0,00000131,false,Rx,0,8,93,83,00,00,00,00,00,00,
0,00000131,false,Rx,0,8,93,83,00,00,00,00,00,00,
0,00000131,false,Rx,0,8,D3,DF,00,00,00,00,02,E0,
0,00000131,false,Rx,0,8,93,83,00,00,00,00,00,00,
0,00000131,false,Rx,0,8,93,83,00,00,00,00,00,00,
0,00000131,false,Rx,0,8,93,83,00,00,00,00,00,00,
0,00000131,false,Rx,0,8,93,83,00,00,00,00,00,00,
0,00000131,false,Rx,0,8,93,83,00,00,00,00,00,00,
0,00000131,false,Rx,0,8,93,83,00,00,00,00,00,00,
0,00000131,false,Rx,0,8,93,83,00,00,00,00,00,00,
0,00000131,false,Rx,0,8,93,83,00,00,00,00,00,00,
0,00000131,false,Rx,0,8,93,83,00,00,00,00,00,00,
0,00000131,false,Rx,0,8,93,83,00,00,00,00,00,00,
0,00000131,false,Rx,0,8,93,83,00,00,00,00,00,00,
0,00000131,false,Rx,0,8,93,83,00,00,00,00,00,00,
0,00000131,false,Rx,0,8,93,83,00,00,00,00,00,00,
0,00000131,false,Rx,0,8,93,83,00,00,00,00,00,00,
0,00000131,false,Rx,0,8,93,83,00,00,00,00,00,00,
0,00000131,false,Rx,0,8,93,83,00,00,00,00,00,00,
0,00000131,false,Rx,0,8,93,83,00,00,00,00,00,00,
0,00000131,false,Rx,0,8,93,83,00,00,00,00,00,00,
0,00000131,false,Rx,0,8,93,83,00,00,00,00,00,00,
0,00000131,false,Rx,0,8,93,83,00,00,00,00,00,00,
0,00000131,false,Rx,0,8,93,83,00,00,00,00,00,00,
0,00000131,false,Rx,0,8,93,83,00,00,00,00,00,00,
0,00000131,false,Rx,0,8,93,83,00,00,00,00,00,00,
0,00000131,false,Rx,0,8,93,83,00,00,00,00,00,00,
0,00000131,false,Rx,0,8,93,83,00,00,00,00,00,00,
0,00000131,false,Rx,0,8,93,83,00,00,00,00,00,00,
0,00000131,false,Rx,0,8,93,83,00,00,00,00,00,00,
0,00000131,false,Rx,0,8,93,83,00,00,00,00,00,00,
0,00000131,false,Rx,0,8,93,83,00,00,00,00,00,00,
0,00000131,false,Rx,0,8,93,83,00,00,00,00,00,00,
0,00000131,false,Rx,0,8,93,83,00,00,00,00,00,00,
0,00000131,false,Rx,0,8,93,83,00,00,00,00,00,00,
0,00000131,false,Rx,0,8,93,83,00,00,00,00,00,00,
0,00000131,false,Rx,0,8,93,83,00,00,00,00,00,00,
0,00000131,false,Rx,0,8,93,83,00,00,00,00,00,00,
0,00000131,false,Rx,0,8,93,83,00,00,00,00,00,00,
0,00000131,false,Rx,0,8,93,83,00,00,00,00,00,00,
0,00000131,false,Rx,0,8,93,83,00,00,00,00,00,00,
0,00000131,false,Rx,0,8,93,83,00,00,00,00,00,00,
0,00000131,false,Rx,0,8,93,83,00,00,00,00,00,00,
0,00000131,false,Rx,0,8,93,83,00,00,00,00,00,00,
0,00000131,false,Rx,0,8,93,83,00,00,00,00,00,00,
0,00000131,false,Rx,0,8,93,83,00,00,00,00,00,00,
0,00000131,false,Rx,0,8,93,83,00,00,00,00,00,00,
0,00000131,false,Rx,0,8,93,83,00,00,00,00,00,00,
0,00000131,false,Rx,0,8,93,83,00,00,00,00,00,00,
0,00000131,false,Rx,0,8,93,83,00,00,00,00,00,00,
0,00000131,false,Rx,0,8,93,83,00,00,00,00,00,00,
0,00000131,false,Rx,0,8,93,83,00,00,00,00,00,00,
0,00000131,false,Rx,0,8,93,83,00,00,00,00,00,00,
0,00000131,false,Rx,0,8,93,83,00,00,00,00,00,00,
0,00000131,false,Rx,0,8,93,83,00,00,00,00,00,00,
0,00000131,false,Rx,0,8,93,83,00,00,00,00,00,00,
0,00000131,false,Rx,0,8,93,83,00,00,00,00,00,00,
0,00000131,false,Rx,0,8,93,83,00,00,00,00,00,00,
0,00000131,false,Rx,0,8,93,83,00,00,00,00,00,00,
0,00000131,false,Rx,0,8,93,83,00,00,00,00,00,00,
0,00000131,false,Rx,0,8,93,83,00,00,00,00,00,00,
0,00000131,false,Rx,0,8,93,83,00,00,00,00,00,00,
0,00000131,false,Rx,0,8,93,83,00,00,00,00,00,00,
0,00000131,false,Rx,0,8,93,83,00,00,00,00,00,00,
0,00000131,false,Rx,0,8,93,83,00,00,00,00,00,00,
0,00000131,false,Rx,0,8,93,83,00,00,00,00,00,00,
0,00000131,false,Rx,0,8,93,83,00,00,00,00,00,00,
0,00000131,false,Rx,0,8,93,83,00,00,00,00,00,00,
0,00000131,false,Rx,0,8,93,83,00,00,00,00,00,00,
0,00000131,false,Rx,0,8,93,83,00,00,00,00,00,00,
0,00000131,false,Rx,0,8,93,83,00,00,00,00,00,00,
0,00000131,false,Rx,0,8,93,83,00,00,00,00,00,00,
0,00000131,false,Rx,0,8,93,83,00,00,00,00,00,00,
0,00000131,false,Rx,0,8,93,83,00,00,00,00,00,00,
0,00000131,false,Rx,0,8,93,83,00,00,00,00,00,00,
0,00000131,false,Rx,0,8,93,83,00,00,00,00,00,00,
0,00000131,false,Rx,0,8,93,83,00,00,00,00,00,00,
0,00000131,false,Rx,0,8,93,83,00,00,00,00,00,00,
0,00000131,false,Rx,0,8,93,83,00,00,00,00,00,00,
0,00000131,false,Rx,0,8,93,83,00,00,00,00,00,00,
0,00000131,false,Rx,0,8,93,83,00,00,00,00,00,00,
0,00000131,false,Rx,0,8,93,83,00,00,00,00,00,00,
0,00000131,false,Rx,0,8,93,83,00,00,00,00,00,00,
0,00000131,false,Rx,0,8,93,83,00,00,00,00,00,00,
0,00000131,false,Rx,0,8,93,83,00,00,00,00,00,00,
0,00000131,false,Rx,0,8,93,83,00,00,00,00,00,00,
0,00000131,false,Rx,0,8,93,83,00,00,00,00,00,00,
0,00000131,false,Rx,0,8,93,83,00,00,00,00,00,00,
0,00000131,false,Rx,0,8,93,83,00,00,00,00,00,00,
0,00000131,false,Rx,0,8,93,83,00,00,00,00,00,00,
0,00000131,false,Rx,0,8,93,83,00,00,00,00,00,00,
0,00000131,false,Rx,0,8,93,83,00,00,00,00,00,00,
0,00000131,false,Rx,0,8,93,83,00,00,00,00,00,00,
0,00000131,false,Rx,0,8,93,83,00,00,00,00,00,00,
0,00000131,false,Rx,0,8,93,83,00,00,00,00,00,00,
0,00000131,false,Rx,0,8,93,83,00,00,00,00,00,00,
0,00000131,false,Rx,0,8,93,83,00,00,00,00,00,00,
0,00000131,false,Rx,0,8,93,83,00,00,00,00,00,00,
0,00000131,false,Rx,0,8,93,83,00,00,00,00,00,00,
0,00000131,false,Rx,0,8,93,83,00,00,00,00,00,00,
0,00000131,false,Rx,0,8,93,83,00,00,00,00,00,00,
0,00000131,false,Rx,0,8,93,83,00,00,00,00,00,00,
0,00000131,false,Rx,0,8,93,83,00,00,00,00,00,00,
0,00000131,false,Rx,0,8,93,83,00,00,00,00,00,00,
0,00000131,false,Rx,0,8,93,83,00,00,00,00,00,00,
0,00000131,false,Rx,0,8,93,83,00,00,00,00,00,00,
0,00000131,false,Rx,0,8,93,83,00,00,00,00,00,00,
0,00000131,false,Rx,0,8,93,83,00,00,00,00,00,00,
0,00000131,false,Rx,0,8,93,83,00,00,00,00,00,00,
0,00000131,false,Rx,0,8,93,83,00,00,00,00,00,00,
0,00000131,false,Rx,0,8,93,83,00,00,00,00,00,00,
0,00000131,false,Rx,0,8,93,83,00,00,00,00,00,00,
0,00000131,false,Rx,0,8,93,83,00,00,00,00,00,00,
0,00000131,false,Rx,0,8,93,83,00,00,00,00,00,00,
0,00000131,false,Rx,0,8,93,83,00,00,00,00,00,00,
0,00000131,false,Rx,0,8,93,83,00,00,00,00,00,00,
0,00000131,false,Rx,0,8,93,83,00,00,00,00,00,00,
0,00000131,false,Rx,0,8,93,83,00,00,00,00,00,00,
0,00000131,false,Rx,0,8,93,83,00,00,00,00,00,00,
0,00000131,false,Rx,0,8,93,83,00,00,00,00,00,00,
0,00000131,false,Rx,0,8,93,83,00,00,00,00,00,00,
0,00000131,false,Rx,0,8,93,83,00,00,00,00,00,00,
0,00000131,false,Rx,0,8,93,83,00,00,00,00,00,00,
0,00000131,false,Rx,0,8,93,83,00,00,00,00,00,00,
0,00000131,false,Rx,0,8,93,83,00,00,00,00,00,00,
0,00000131,false,Rx,0,8,93,83,00,00,00,00,00,00,
0,00000131,false,Rx,0,8,93,83,00,00,00,00,00,00,
0,00000131,false,Rx,0,8,93,83,00,00,00,00,00,00,
0,00000131,false,Rx,0,8,93,83,00,00,00,00,00,00,
0,00000131,false,Rx,0,8,93,83,00,00,00,00,00,00,
0,00000131,false,Rx,0,8,93,83,00,00,00,00,00,00,
0,00000131,false,Rx,0,8,93,83,00,00,00,00,00,00,
0,00000131,false,Rx,0,8,93,83,00,00,00,00,00,00,
0,00000131,false,Rx,0,8,93,83,00,00,00,00,00,00,
0,00000131,false,Rx,0,8,93,83,00,00,00,00,00,00,
0,00000131,false,Rx,0,8,93,83,00,00,00,00,00,00,
0,00000131,false,Rx,0,8,93,83,00,00,00,00,00,00,
0,00000131,false,Rx,0,8,93,83,00,00,00,00,00,00,
0,00000131,false,Rx,0,8,93,83,00,00,00,00,00,00,
0,00000131,false,Rx,0,8,93,83,00,00,00,00,00,00,
0,00000131,false,Rx,0,8,93,83,00,00,00,00,00,1B,
0,00000131,false,Rx,0,8,D3,EF,00,00,00,00,00,1B,
0,00000131,false,Rx,0,8,D3,EF,00,00,00,00,00,1B,
0,00000131,false,Rx,0,8,D3,E7,00,00,00,00,00,19,
0,00000131,false,Rx,0,8,93,83,00,00,00,00,00,00,
0,00000131,false,Rx,0,8,93,83,00,00,00,00,00,19,
0,00000131,false,Rx,0,8,93,83,00,00,00,00,00,19,
0,00000131,false,Rx,0,8,93,83,00,00,00,00,00,00,
0,00000131,false,Rx,0,8,93,83,00,00,00,00,00,00,
0,00000131,false,Rx,0,8,93,83,00,00,00,00,00,00,
0,00000131,false,Rx,0,8,93,83,00,00,00,00,02,C0,
0,00000131,false,Rx,0,8,D3,DB,00,00,00,00,02,C0,
0,00000131,false,Rx,0,8,D3,DB,00,00,00,00,02,C0,
0,00000131,false,Rx,0,8,D3,E7,00,00,00,00,03,20,
0,00000131,false,Rx,0,8,D3,DB,00,00,00,00,02,C0,
0,00000131,false,Rx,0,8,93,83,00,00,00,00,5A,E0,
0,00000131,false,Rx,0,8,D3,DB,00,00,00,00,5B,40,
0,00000131,false,Rx,0,8,D3,EF,00,00,00,00,5B,60,
0,00000131,false,Rx,0,8,D3,EF,00,00,00,00,03,60,
0,00000131,false,Rx,0,8,D3,EF,00,00,00,00,03,60,
0,00000131,false,Rx,0,8,D3,EB,00,00,00,00,03,40,
0,00000131,false,Rx,0,8,93,83,00,00,00,00,03,00,
0,00000131,false,Rx,0,8,93,83,00,00,00,00,03,00,
0,00000131,false,Rx,0,8,D3,E7,00,00,00,00,67,40,
0,00000131,false,Rx,0,8,D3,EB,00,00,00,00,67,40,
0,00000131,false,Rx,0,8,D3,EB,00,00,00,00,67,40,
0,00000131,false,Rx,0,8,D3,EF,00,00,00,00,6B,60,
0,00000131,false,Rx,0,8,D3,EF,00,00,00,00,67,60,
0,00000131,false,Rx,0,8,D3,EF,00,00,00,00,67,60,
0,00000131,false,Rx,0,8,D3,F3,00,00,00,00,6B,80,
0,00000131,false,Rx,0,8,D3,F3,00,00,00,00,6B,99,
0,00000131,false,Rx,0,8,D3,F3,00,00,00,00,6B,9C,
0,00000131,false,Rx,0,8,D3,F3,00,00,00,00,6B,9A,
0,00000131,false,Rx,0,8,D3,F3,00,00,00,00,6B,9C,
0,00000131,false,Rx,0,8,D3,F7,00,00,00,00,03,BD,
0,00000131,false,Rx,0,8,D3,F7,00,00,00,00,03,BD,
0,00000131,false,Rx,0,8,D3,F7,00,00,00,00,6F,BD,
0,00000131,false,Rx,0,8,D3,F7,00,00,00,00,6F,BD,
0,00000131,false,Rx,0,8,D3,F7,00,00,00,00,6F,BD,
0,00000131,false,Rx,0,8,D3,F7,00,00,00,00,6F,BD,
0,00000131,false,Rx,0,8,D3,F7,00,00,00,00,03,BD,
0,00000131,false,Rx,0,8,D3,F7,00,00,00,00,03,BD,
0,00000131,false,Rx,0,8,D3,F7,00,00,00,00,67,A0,
0,00000131,false,Rx,0,8,D3,F7,00,00,00,00,67,A0,
0,00000131,false,Rx,0,8,D3,F7,00,00,00,00,67,A0,
0,00000131,false,Rx,0,8,D3,F7,00,00,00,00,5F,A0,
0,00000131,false,Rx,0,8,D3,F7,00,00,00,00,03,A0,
0,00000131,false,Rx,0,8,D3,F7,00,00,00,00,03,A0,
0,00000131,false,Rx,0,8,D3,F7,00,00,00,00,03,A0,
0,00000131,false,Rx,0,8,D3,F7,00,00,00,00,03,A0,
0,00000131,false,Rx,0,8,D3,F7,00,00,00,00,03,A0,
0,00000131,false,Rx,0,8,D3,F7,00,00,00,00,03,A0,
0,00000131,false,Rx,0,8,D3,F7,00,00,00,00,03,A0,
0,00000131,false,Rx,0,8,D3,F7,00,00,00,00,03,A0,
0,00000131,false,Rx,0,8,D3,F7,00,00,00,00,03,A0,
0,00000131,false,Rx,0,8,D3,F7,00,00,00,00,03,A0,
0,00000131,false,Rx,0,8,D3,F7,00,00,00,00,03,A0,
0,00000131,false,Rx,0,8,D3,F7,00,00,00,00,03,A0,
0,00000131,false,Rx,0,8,D3,F7,00,00,00,00,03,A0,
0,00000131,false,Rx,0,8,D3,F7,00,00,00,00,03,A0,
0,00000131,false,Rx,0,8,D3,F7,00,00,00,00,03,A0,
0,00000131,false,Rx,0,8,D3,F7,00,00,00,00,03,A0,
0,00000131,false,Rx,0,8,D3,F7,00,00,00,00,03,A0,
0,00000131,false,Rx,0,8,D3,F7,00,00,00,00,03,A0,
0,00000131,false,Rx,0,8,D3,F7,00,00,00,00,03,A0,
0,00000131,false,Rx,0,8,D3,F7,00,00,00,00,03,A0,
0,00000131,false,Rx,0,8,D3,F7,00,00,00,00,03,A0,
0,00000131,false,Rx,0,8,D3,F7,00,00,00,00,03,A0,
0,00000131,false,Rx,0,8,D3,F7,00,00,00,00,03,A0,
0,00000131,false,Rx,0,8,D3,F7,00,00,00,00,03,A0,
0,00000131,false,Rx,0,8,D3,F7,00,00,00,00,03,A0,
0,00000131,false,Rx,0,8,D3,F7,00,00,00,00,03,A0,
0,00000131,false,Rx,0,8,D3,F7,00,00,00,00,03,A0,
0,00000131,false,Rx,0,8,D3,F7,00,00,00,00,03,A0,
0,00000131,false,Rx,0,8,D3,F7,00,00,00,00,03,A0,
0,00000131,false,Rx,0,8,D3,F7,00,00,00,00,03,A0,
0,00000131,false,Rx,0,8,D3,F7,00,00,00,00,03,A0,
0,00000131,false,Rx,0,8,D3,F7,00,00,00,00,03,A0,
0,00000131,false,Rx,0,8,D3,F7,00,00,00,00,03,A0,
0,00000131,false,Rx,0,8,D3,F7,00,00,00,00,03,A0,
0,00000131,false,Rx,0,8,D3,F7,00,00,00,00,03,A0,
0,00000131,false,Rx,0,8,D3,F7,00,00,00,00,03,A0,
0,00000131,false,Rx,0,8,D3,F7,00,00,00,00,03,A0,
0,00000131,false,Rx,0,8,D3,F7,00,00,00,00,03,A0,
0,00000131,false,Rx,0,8,D3,F7,00,00,00,00,03,A0,
0,00000131,false,Rx,0,8,D3,F7,00,00,00,00,03,A0,
0,00000131,false,Rx,0,8,D3,F7,00,00,00,00,03,A0,
0,00000131,false,Rx,0,8,D3,F7,00,00,00,00,03,A0,
0,00000131,false,Rx,0,8,D3,F7,00,00,00,00,03,A0,
0,00000131,false,Rx,0,8,D3,F7,00,00,00,00,03,A0,
0,00000131,false,Rx,0,8,D3,F7,00,00,00,00,03,A0,
0,00000131,false,Rx,0,8,D3,F7,00,00,00,00,03,A0,
0,00000131,false,Rx,0,8,D3,F7,00,00,00,00,03,A0,
0,00000131,false,Rx,0,8,D3,F7,00,00,00,00,03,A0,
0,00000131,false,Rx,0,8,D3,F7,00,00,00,00,03,A0,
0,00000131,false,Rx,0,8,D3,F7,00,00,00,00,03,A0,
0,00000131,false,Rx,0,8,D3,F7,00,00,00,00,03,A0,
0,00000131,false,Rx,0,8,D3,F7,00,00,00,00,03,A0,
0,00000131,false,Rx,0,8,D3,F7,00,00,00,00,03,A0,
0,00000131,false,Rx,0,8,D3,F7,00,00,00,00,03,A0,
0,00000131,false,Rx,0,8,D3,F7,00,00,00,00,03,A0,
0,00000131,false,Rx,0,8,D3,F7,00,00,00,00,03,A0,
0,00000131,false,Rx,0,8,D3,F7,00,00,00,00,03,A0,
0,00000131,false,Rx,0,8,D3,F7,00,00,00,00,03,A0,
0,00000131,false,Rx,0,8,D3,F7,00,00,00,00,03,A0,
0,00000131,false,Rx,0,8,D3,F7,00,00,00,00,03,A0,
0,00000131,false,Rx,0,8,D3,F7,00,00,00,00,03,A0,
0,00000131,false,Rx,0,8,D3,F7,00,00,00,00,03,A0,
0,00000131,false,Rx,0,8,D3,F7,00,00,00,00,03,A0,
0,00000131,false,Rx,0,8,D3,F7,00,00,00,00,03,A0,
0,00000131,false,Rx,0,8,D3,F7,00,00,00,00,03,A0,
0,00000131,false,Rx,0,8,D3,F7,00,00,00,00,03,A0,
0,00000131,false,Rx,0,8,D3,F7,00,00,00,00,03,A0,
0,00000131,false,Rx,0,8,D3,F7,00,00,00,00,03,A0,
0,00000131,false,Rx,0,8,D3,F7,00,00,00,00,03,A0,
0,00000131,false,Rx,0,8,D3,F7,00,00,00,00,03,A0,
0,00000131,false,Rx,0,8,D3,F7,00,00,00,00,03,A0,
0,00000131,false,Rx,0,8,D3,F7,00,00,00,00,03,A0,
0,00000131,false,Rx,0,8,D3,F7,00,00,00,00,03,A0,
0,00000131,false,Rx,0,8,D3,F7,00,00,00,00,03,A0,
0,00000131,false,Rx,0,8,D3,F7,00,00,00,00,03,A0,
0,00000131,false,Rx,0,8,D3,F7,00,00,00,00,03,A0,
0,00000131,false,Rx,0,8,D3,F7,00,00,00,00,03,A0,
0,00000131,false,Rx,0,8,D3,F7,00,00,00,00,03,A0,
0,00000131,false,Rx,0,8,D3,F7,00,00,00,00,03,A0,
0,00000131,false,Rx,0,8,D3,F7,00,00,00,00,03,A0,
0,00000131,false,Rx,0,8,D3,F7,00,00,00,00,03,A0,
0,00000131,false,Rx,0,8,D3,F7,00,00,00,00,03,A0,
0,00000131,false,Rx,0,8,D3,F7,00,00,00,00,03,A0,
0,00000131,false,Rx,0,8,D3,F7,00,00,00,00,03,A0,
0,00000131,false,Rx,0,8,D3,F7,00,00,00,00,03,A0,
0,00000131,false,Rx,0,8,D3,F7,00,00,00,00,03,A0,
0,00000131,false,Rx,0,8,D3,F7,00,00,00,00,03,A0,
0,00000131,false,Rx,0,8,D3,F7,00,00,00,00,03,A0,
0,00000131,false,Rx,0,8,D3,F7,00,00,00,00,03,A0,
0,00000131,false,Rx,0,8,D3,F7,00,00,00,00,03,A0,
0,00000131,false,Rx,0,8,D3,F7,00,00,00,00,03,A0,
0,00000131,false,Rx,0,8,D3,F7,00,00,00,00,03,A0,
0,00000131,false,Rx,0,8,D3,F7,00,00,00,00,03,A0,
0,00000131,false,Rx,0,8,D3,F7,00,00,00,00,03,A0,
0,00000131,false,Rx,0,8,D3,F7,00,00,00,00,03,A0,
0,00000131,false,Rx,0,8,D3,F7,00,00,00,00,03,A0,
0,00000131,false,Rx,0,8,D3,F7,00,00,00,00,03,A0,
0,00000131,false,Rx,0,8,D3,F7,00,00,00,00,03,A0,
0,00000131,false,Rx,0,8,D3,F7,00,00,00,00,03,A0,
0,00000131,false,Rx,0,8,D3,F7,00,00,00,00,03,A0,
0,00000131,false,Rx,0,8,D3,F7,00,00,00,00,03,A0,
0,00000131,false,Rx,0,8,D3,F7,00,00,00,00,03,A0,
0,00000131,false,Rx,0,8,D3,F7,00,00,00,00,03,A0,
0,00000131,false,Rx,0,8,D3,F7,00,00,00,00,03,A0,
0,00000131,false,Rx,0,8,D3,F7,00,00,00,00,03,A0,
0,00000131,false,Rx,0,8,D3,F7,00,00,00,00,03,A0,
0,00000131,false,Rx,0,8,D3,F7,00,00,00,00,03,A0,
0,00000131,false,Rx,0,8,D3,F7,00,00,00,00,03,A0,
0,00000131,false,Rx,0,8,D3,F7,00,00,00,00,03,A0,
0,00000131,false,Rx,0,8,D3,F7,00,00,00,00,03,A0,
0,00000131,false,Rx,0,8,D3,F7,00,00,00,00,03,A0,
0,00000131,false,Rx,0,8,D3,F7,00,00,00,00,03,A0,
0,00000131,false,Rx,0,8,D3,F7,00,00,00,00,03,A0,
0,00000131,false,Rx,0,8,D3,F7,00,00,00,00,03,A0,
0,00000131,false,Rx,0,8,D3,F7,00,00,00,00,03,A0,
0,00000131,false,Rx,0,8,D3,F7,00,00,00,00,03,A0,
0,00000131,false,Rx,0,8,D3,F7,00,00,00,00,03,A0,
0,00000131,false,Rx,0,8,D3,F7,00,00,00,00,03,A0,
0,00000131,false,Rx,0,8,D3,F7,00,00,00,00,03,A0,
0,00000131,false,Rx,0,8,D3,F7,00,00,00,00,03,A0,
0,00000131,false,Rx,0,8,D3,F7,00,00,00,00,03,A0,
0,00000131,false,Rx,0,8,D3,F7,00,00,00,00,03,A0,
0,00000131,false,Rx,0,8,D3,F7,00,00,00,00,03,A0,
0,00000131,false,Rx,0,8,D3,F7,00,00,00,00,03,A0,
0,00000131,false,Rx,0,8,D3,F7,00,00,00,00,03,A0,
0,00000131,false,Rx,0,8,D3,F7,00,00,00,00,03,A0,
0,00000131,false,Rx,0,8,D3,F7,00,00,00,00,03,A0,
0,00000131,false,Rx,0,8,D3,F7,00,00,00,00,03,A0,
0,00000131,false,Rx,0,8,D3,F7,00,00,00,00,03,A0,
0,00000131,false,Rx,0,8,D3,F7,00,00,00,00,03,A0,
0,00000131,false,Rx,0,8,D3,F7,00,00,00,00,03,A0,
0,00000131,false,Rx,0,8,D3,F7,00,00,00,00,03,A0,
0,00000131,false,Rx,0,8,D3,F7,00,00,00,00,03,A0,
0,00000131,false,Rx,0,8,D3,F7,00,00,00,00,03,A0,
0,00000131,false,Rx,0,8,D3,F7,00,00,00,00,03,A0,
0,00000131,false,Rx,0,8,D3,F7,00,00,00,00,03,A0,
0,00000131,false,Rx,0,8,D3,F7,00,00,00,00,03,A0,
0,00000131,false,Rx,0,8,D3,F7,00,00,00,00,03,A0,
0,00000131,false,Rx,0,8,D3,F7,00,00,00,00,03,A0,
0,00000131,false,Rx,0,8,D3,F7,00,00,00,00,03,A0,
0,00000131,false,Rx,0,8,D3,F7,00,00,00,00,03,A0,
0,00000131,false,Rx,0,8,D3,F7,00,00,00,00,03,A0,
0,00000131,false,Rx,0,8,D3,F7,00,00,00,00,03,A0,
0,00000131,false,Rx,0,8,D3,F7,00,00,00,00,03,A0,
0,00000131,false,Rx,0,8,D3,F7,00,00,00,00,03,A0,
0,00000131,false,Rx,0,8,D3,F7,00,00,00,00,03,A0,
0,00000131,false,Rx,0,8,D3,F7,00,00,00,00,03,A0,
0,00000131,false,Rx,0,8,D3,F7,00,00,00,00,03,A0,
0,00000131,false,Rx,0,8,D3,F7,00,00,00,00,03,A0,
0,00000131,false,Rx,0,8,D3,F7,00,00,00,00,03,A0,
0,00000131,false,Rx,0,8,D3,F7,00,00,00,00,03,A0,
0,00000131,false,Rx,0,8,D3,F7,00,00,00,00,03,A0,
0,00000131,false,Rx,0,8,D3,F7,00,00,00,00,03,A0,
0,00000131,false,Rx,0,8,D3,F7,00,00,00,00,03,A0,
0,00000131,false,Rx,0,8,D3,F7,00,00,00,00,03,A0,
0,00000131,false,Rx,0,8,D3,F7,00,00,00,00,03,A0,
0,00000131,false,Rx,0,8,D3,F7,00,00,00,00,03,A0,
0,00000131,false,Rx,0,8,D3,F7,00,00,00,00,03,A0,
0,00000131,false,Rx,0,8,D3,F7,00,00,00,00,03,A0,
0,00000131,false,Rx,0,8,D3,F7,00,00,00,00,03,A0,
0,00000131,false,Rx,0,8,D3,F7,00,00,00,00,03,A0,
0,00000131,false,Rx,0,8,D3,F7,00,00,00,00,03,A0,
0,00000131,false,Rx,0,8,D3,F7,00,00,00,00,03,A0,
0,00000131,false,Rx,0,8,D3,F7,00,00,00,00,03,A0,
0,00000131,false,Rx,0,8,D3,F7,00,00,00,00,03,A0,
0,00000131,false,Rx,0,8,D3,F7,00,00,00,00,03,A0,
0,00000131,false,Rx,0,8,D3,F7,00,00,00,00,03,A0,
0,00000131,false,Rx,0,8,D3,F7,00,00,00,00,03,A0,
0,00000131,false,Rx,0,8,D3,F7,00,00,00,00,03,A0,
0,00000131,false,Rx,0,8,D3,F7,00,00,00,00,03,A0,
0,00000131,false,Rx,0,8,D3,F7,00,00,00,00,03,A0,
0,00000131,false,Rx,0,8,D3,F7,00,00,00,00,03,A0,
0,00000131,false,Rx,0,8,D3,F7,00,00,00,00,03,A0,
0,00000131,false,Rx,0,8,D3,F7,00,00,00,00,03,A0,
0,00000131,false,Rx,0,8,D3,F7,00,00,00,00,03,A0,
0,00000131,false,Rx,0,8,D3,F7,00,00,00,00,03,A0,
0,00000131,false,Rx,0,8,D3,F7,00,00,00,00,03,A0,
0,00000131,false,Rx,0,8,D3,F7,00,00,00,00,03,A0,
0,00000131,false,Rx,0,8,D3,F7,00,00,00,00,03,A0,
0,00000131,false,Rx,0,8,D3,F7,00,00,00,00,03,A0,
0,00000131,false,Rx,0,8,D3,F7,00,00,00,00,03,A0,
0,00000131,false,Rx,0,8,D3,F7,00,00,00,00,03,A0,
0,00000131,false,Rx,0,8,D3,F7,00,00,00,00,03,A0,
0,00000131,false,Rx,0,8,D3,F7,00,00,00,00,03,A0,
0,00000131,false,Rx,0,8,D3,F7,00,00,00,00,03,A0,
0,00000131,false,Rx,0,8,D3,F7,00,00,00,00,03,A0,
0,00000131,false,Rx,0,8,D3,F7,00,00,00,00,03,A0,
0,00000131,false,Rx,0,8,D3,F7,00,00,00,00,03,A0,
0,00000131,false,Rx,0,8,D3,F7,00,00,00,00,03,A0,
0,00000131,false,Rx,0,8,D3,F7,00,00,00,00,03,A0,
0,00000131,false,Rx,0,8,D3,F7,00,00,00,00,03,A0,
0,00000131,false,Rx,0,8,D3,F7,00,00,00,00,03,A0,
0,00000131,false,Rx,0,8,D3,F7,00,00,00,00,03,A0,
0,00000131,false,Rx,0,8,D3,F7,00,00,00,00,03,A0,
0,00000131,false,Rx,0,8,D3,F7,00,00,00,00,03,A0,
0,00000131,false,Rx,0,8,D3,F7,00,00,00,00,03,A0,
0,00000131,false,Rx,0,8,D3,F7,00,00,00,00,03,A0,
0,00000131,false,Rx,0,8,D3,F7,00,00,00,00,03,A0,
0,00000131,false,Rx,0,8,D3,F7,00,00,00,00,03,A0,
0,00000131,false,Rx,0,8,D3,F7,00,00,00,00,03,A0,
0,00000131,false,Rx,0,8,D3,F7,00,00,00,00,03,A0,
0,00000131,false,Rx,0,8,D3,F7,00,00,00,00,03,A0,
0,00000131,false,Rx,0,8,D3,F7,00,00,00,00,03,A0,
0,00000131,false,Rx,0,8,D3,F7,00,00,00,00,03,A0,
0,00000131,false,Rx,0,8,D3,F7,00,00,00,00,03,A0,
0,00000131,false,Rx,0,8,D3,F7,00,00,00,00,03,A0,
0,00000131,false,Rx,0,8,D3,F7,00,00,00,00,03,A0,
0,00000131,false,Rx,0,8,D3,F7,00,00,00,00,03,A0,
0,00000131,false,Rx,0,8,D3,F7,00,00,00,00,03,A0,
0,00000131,false,Rx,0,8,D3,F7,00,00,00,00,03,A0,
0,00000131,false,Rx,0,8,D3,F7,00,00,00,00,03,A0,
0,00000131,false,Rx,0,8,D3,F7,00,00,00,00,03,A0,
0,00000131,false,Rx,0,8,D3,F7,00,00,00,00,03,A0,
0,00000131,false,Rx,0,8,D3,F7,00,00,00,00,03,A0,
0,00000131,false,Rx,0,8,D3,F7,00,00,00,00,03,A0,
0,00000131,false,Rx,0,8,D3,F7,00,00,00,00,03,A0,
0,00000131,false,Rx,0,8,D3,F7,00,00,00,00,03,A0,
0,00000131,false,Rx,0,8,D3,F7,00,00,00,00,03,A0,
0,00000131,false,Rx,0,8,D3,F7,00,00,00,00,03,A0,
0,00000131,false,Rx,0,8,D3,F7,00,00,00,00,03,A0,
0,00000131,false,Rx,0,8,D3,F7,00,00,00,00,03,A0,
0,00000131,false,Rx,0,8,D3,F7,00,00,00,00,03,A0,
0,00000131,false,Rx,0,8,D3,F7,00,00,00,00,03,A0,
0,00000131,false,Rx,0,8,D3,F7,00,00,00,00,03,A0,
0,00000131,false,Rx,0,8,D3,F7,00,00,00,00,03,A0,
0,00000131,false,Rx,0,8,D3,F7,00,00,00,00,03,A0,
0,00000131,false,Rx,0,8,D3,F7,00,00,00,00,03,A0,
0,00000131,false,Rx,0,8,D3,F7,00,00,00,00,03,A0,
0,00000131,false,Rx,0,8,D3,F7,00,00,00,00,03,A0,
0,00000131,false,Rx,0,8,D3,F7,00,00,00,00,03,A0,
0,00000131,false,Rx,0,8,D3,F7,00,00,00,00,03,A0,
0,00000131,false,Rx,0,8,D3,F7,00,00,00,00,03,A0,
0,00000131,false,Rx,0,8,D3,F7,00,00,00,00,03,A0,
0,00000131,false,Rx,0,8,D3,F7,00,00,00,00,03,A0,
0,00000131,false,Rx,0,8,D3,F7,00,00,00,00,03,A0,
0,00000131,false,Rx,0,8,D3,F7,00,00,00,00,03,A0,
0,00000131,false,Rx,0,8,D3,F7,00,00,00,00,03,A0,
0,00000131,false,Rx,0,8,D3,F7,00,00,00,00,03,A0,
0,00000131,false,Rx,0,8,D3,F7,00,00,00,00,03,A0,
0,00000131,false,Rx,0,8,D3,F7,00,00,00,00,03,A0,
0,00000131,false,Rx,0,8,D3,F7,00,00,00,00,03,A0,
0,00000131,false,Rx,0,8,D3,F7,00,00,00,00,03,A0,
0,00000131,false,Rx,0,8,D3,F7,00,00,00,00,03,A0,
0,00000131,false,Rx,0,8,D3,F7,00,00,00,00,03,A0,
0,00000131,false,Rx,0,8,D3,F7,00,00,00,00,03,A0,
0,00000131,false,Rx,0,8,D3,F7,00,00,00,00,03,A0,
0,00000131,false,Rx,0,8,D3,F7,00,00,00,00,03,A0,
0,00000131,false,Rx,0,8,D3,F7,00,00,00,00,03,A0,
0,00000131,false,Rx,0,8,D3,F7,00,00,00,00,03,A0,
0,00000131,false,Rx,0,8,D3,F7,00,00,00,00,03,A0,
0,00000131,false,Rx,0,8,D3,F7,00,00,00,00,03,A0,
0,00000131,false,Rx,0,8,D3,F7,00,00,00,00,03,A0,
0,00000131,false,Rx,0,8,D3,F7,00,00,00,00,03,A0,
0,00000131,false,Rx,0,8,D3,F7,00,00,00,00,03,A0,
0,00000131,false,Rx,0,8,D3,F7,00,00,00,00,03,A0,
0,00000131,false,Rx,0,8,D3,F7,00,00,00,00,03,A0,
0,00000131,false,Rx,0,8,D3,F7,00,00,00,00,03,A0,
0,00000131,false,Rx,0,8,D3,F7,00,00,00,00,03,A0,
0,00000131,false,Rx,0,8,D3,F7,00,00,00,00,03,A0,
0,00000131,false,Rx,0,8,D3,F7,00,00,00,00,03,A0,
0,00000131,false,Rx,0,8,D3,F7,00,00,00,00,03,A0,
0,00000131,false,Rx,0,8,D3,F7,00,00,00,00,03,A0,
0,00000131,false,Rx,0,8,D3,F7,00,00,00,00,03,A0,
0,00000131,false,Rx,0,8,D3,F7,00,00,00,00,03,A0,
0,00000131,false,Rx,0,8,D3,F7,00,00,00,00,03,A0,
0,00000131,false,Rx,0,8,D3,F7,00,00,00,00,03,A0,
0,00000131,false,Rx,0,8,D3,F7,00,00,00,00,03,A0,
0,00000131,false,Rx,0,8,D3,F7,00,00,00,00,03,A0,
0,00000131,false,Rx,0,8,D3,F7,00,00,00,00,03,A0,
0,00000131,false,Rx,0,8,D3,F7,00,00,00,00,03,A0,
0,00000131,false,Rx,0,8,D3,F7,00,00,00,00,03,A0,
0,00000131,false,Rx,0,8,D3,F7,00,00,00,00,03,A0,
0,00000131,false,Rx,0,8,D3,F7,00,00,00,00,03,A0,
0,00000131,false,Rx,0,8,D3,F7,00,00,00,00,03,A0,
0,00000131,false,Rx,0,8,D3,F7,00,00,00,00,03,A0,
0,00000131,false,Rx,0,8,D3,F7,00,00,00,00,03,A0,
0,00000131,false,Rx,0,8,D3,F7,00,00,00,00,03,A0,
0,00000131,false,Rx,0,8,D3,F7,00,00,00,00,03,A0,
0,00000131,false,Rx,0,8,D3,F7,00,00,00,00,03,A0,
0,00000131,false,Rx,0,8,D3,F7,00,00,00,00,03,A0,
0,00000131,false,Rx,0,8,D3,F7,00,00,00,00,03,A0,
0,00000131,false,Rx,0,8,D3,F7,00,00,00,00,03,A0,
0,00000131,false,Rx,0,8,D3,F7,00,00,00,00,03,A0,
0,00000131,false,Rx,0,8,D3,F7,00,00,00,00,03,A0,
0,00000131,false,Rx,0,8,D3,F7,00,00,00,00,03,A0,
0,00000131,false,Rx,0,8,D3,F7,00,00,00,00,03,A0,
0,00000131,false,Rx,0,8,D3,F7,00,00,00,00,03,A0,
0,00000131,false,Rx,0,8,D3,F7,00,00,00,00,03,A0,
0,00000131,false,Rx,0,8,D3,F7,00,00,00,00,03,A0,
0,00000131,false,Rx,0,8,D3,F7,00,00,00,00,03,A0,
0,00000131,false,Rx,0,8,D3,F7,00,00,00,00,03,A0,
0,00000131,false,Rx,0,8,D3,F7,00,00,00,00,03,A0,
0,00000131,false,Rx,0,8,D3,F7,00,00,00,00,03,A0,
0,00000131,false,Rx,0,8,D3,F7,00,00,00,00,03,A0,
0,00000131,false,Rx,0,8,D3,F7,00,00,00,00,03,A0,
0,00000131,false,Rx,0,8,D3,F7,00,00,00,00,03,A0,
0,00000131,false,Rx,0,8,D3,F7,00,00,00,00,03,A0,
0,00000131,false,Rx,0,8,D3,F7,00,00,00,00,03,A0,
0,00000131,false,Rx,0,8,D3,F7,00,00,00,00,03,A0,
0,00000131,false,Rx,0,8,D3,F7,00,00,00,00,03,A0,
0,00000131,false,Rx,0,8,D3,F7,00,00,00,00,03,A0,
0,00000131,false,Rx,0,8,D3,F7,00,00,00,00,03,A0,
0,00000131,false,Rx,0,8,D3,F7,00,00,00,00,03,A0,
0,00000131,false,Rx,0,8,D3,F7,00,00,00,00,03,A0,
0,00000131,false,Rx,0,8,D3,F7,00,00,00,00,03,A0,
0,00000131,false,Rx,0,8,D3,F7,00,00,00,00,03,A0,
0,00000131,false,Rx,0,8,D3,F7,00,00,00,00,03,A0,
0,00000131,false,Rx,0,8,D3,F7,00,00,00,00,03,A0,
0,00000131,false,Rx,0,8,D3,F7,00,00,00,00,03,A0,
0,00000131,false,Rx,0,8,D3,F7,00,00,00,00,03,A0,
0,00000131,false,Rx,0,8,D3,F7,00,00,00,00,03,A0,
0,00000131,false,Rx,0,8,D3,F7,00,00,00,00,03,A0,
0,00000131,false,Rx,0,8,D3,F7,00,00,00,00,03,A0,
0,00000131,false,Rx,0,8,D3,F7,00,00,00,00,03,A0,
0,00000131,false,Rx,0,8,D3,F7,00,00,00,00,03,A0,
0,00000131,false,Rx,0,8,D3,F7,00,00,00,00,03,A0,
0,00000131,false,Rx,0,8,D3,F7,00,00,00,00,03,A0,
0,00000131,false,Rx,0,8,D3,F7,00,00,00,00,03,A0,
0,00000131,false,Rx,0,8,D3,F7,00,00,00,00,03,A0,
0,00000131,false,Rx,0,8,D3,F7,00,00,00,00,03,A0,
0,00000131,false,Rx,0,8,D3,F7,00,00,00,00,03,A0,
0,00000131,false,Rx,0,8,D3,F7,00,00,00,00,03,A0,
0,00000131,false,Rx,0,8,D3,F7,00,00,00,00,03,A0,
0,00000131,false,Rx,0,8,D3,F7,00,00,00,00,03,A0,
0,00000131,false,Rx,0,8,D3,F7,00,00,00,00,03,A0,
0,00000131,false,Rx,0,8,D3,F7,00,00,00,00,03,A0,
0,00000131,false,Rx,0,8,D3,F7,00,00,00,00,03,A0,
0,00000131,false,Rx,0,8,D3,F7,00,00,00,00,03,A0,
0,00000131,false,Rx,0,8,D3,F7,00,00,00,00,03,A0,
0,00000131,false,Rx,0,8,D3,F7,00,00,00,00,03,A0,
0,00000131,false,Rx,0,8,D3,F7,00,00,00,00,03,A0,
0,00000131,false,Rx,0,8,D3,F7,00,00,00,00,03,A0,
0,00000131,false,Rx,0,8,D3,F7,00,00,00,00,03,A0,
0,00000131,false,Rx,0,8,D3,F7,00,00,00,00,03,A0,
0,00000131,false,Rx,0,8,D3,F7,00,00,00,00,03,BD,
0,00000131,false,Rx,0,8,D3,FB,00,00,00,00,03,DE,
0,00000131,false,Rx,0,8,D3,FB,00,00,00,00,03,DE,
0,00000131,false,Rx,0,8,D3,FB,00,00,00,00,03,DE,
0,00000131,false,Rx,0,8,D3,FB,00,00,00,00,03,DE,
0,00000131,false,Rx,0,8,D3,FB,00,00,00,00,03,DE,
0,00000131,false,Rx,0,8,D3,FB,00,00,00,00,03,DE,
0,00000131,false,Rx,0,8,D3,F7,00,00,00,00,03,A0,
0,00000131,false,Rx,0,8,D3,F7,00,00,00,00,03,A0,
0,00000131,false,Rx,0,8,D3,F7,00,00,00,00,03,A0,
0,00000131,false,Rx,0,8,D3,F7,00,00,00,00,67,BD,
0,00000131,false,Rx,0,8,D3,F7,00,00,00,00,6F,BD,
0,00000131,false,Rx,0,8,D3,FB,00,00,00,00,6F,DE,
0,00000131,false,Rx,0,8,D3,FB,00,00,00,00,6F,DE,
0,00000131,false,Rx,0,8,D3,FB,00,00,00,00,6F,DA,
0,00000131,false,Rx,0,8,D3,FB,00,00,00,00,6F,DA,
0,00000131,false,Rx,0,8,D3,FB,00,00,00,00,6F,DB,
0,00000131,false,Rx,0,8,D3,FB,00,00,00,00,6F,DC,
0,00000131,false,Rx,0,8,D3,FB,00,00,00,00,73,DB,
0,00000131,false,Rx,0,8,D3,FB,00,00,00,00,73,DD,
0,00000131,false,Rx,0,8,D3,FF,00,00,00,00,73,FD,
0,00000131,false,Rx,0,8,D3,FF,00,00,00,00,03,FD,
0,00000131,false,Rx,0,8,D3,FF,00,00,00,00,03,FD,
0,00000131,false,Rx,0,8,D3,FF,00,00,00,00,03,FE,
0,00000131,false,Rx,0,8,D3,FF,00,00,00,00,7B,FE,
0,00000131,false,Rx,0,8,D3,FF,00,00,00,00,6F,FE,
0,00000131,false,Rx,0,8,D3,FF,00,00,00,00,6F,FE,
0,00000131,false,Rx,0,8,D3,FF,00,00,00,00,6F,FE,
0,00000131,false,Rx,0,8,D3,FF,00,00,00,00,03,FE,
0,00000131,false,Rx,0,8,D3,FF,00,00,00,00,77,FE,
0,00000131,false,Rx,0,8,D3,FF,00,00,00,00,77,FE,
0,00000131,false,Rx,0,8,D3,FF,00,00,00,00,73,FD,
0,00000131,false,Rx,0,8,D3,FF,00,00,00,00,6F,FD,
0,00000131,false,Rx,0,8,D3,FF,00,00,00,00,6F,FB,
0,00000131,false,Rx,0,8,D3,FF,00,00,00,00,67,FB,
0,00000131,false,Rx,0,8,D3,FF,00,00,00,00,67,F9,
0,00000131,false,Rx,0,8,D3,FF,00,00,00,00,63,E0,
0,00000131,false,Rx,0,8,D3,FF,00,00,00,00,03,E0,
0,00000131,false,Rx,0,8,D3,FF,00,00,00,00,03,E0,
0,00000131,false,Rx,0,8,D3,FF,00,00,00,00,03,E0,
0,00000131,false,Rx,0,8,D3,FF,00,00,00,00,03,E0,
0,00000131,false,Rx,0,8,D3,FF,00,00,00,00,03,FA,
0,00000131,false,Rx,0,8,D3,FF,00,00,00,00,03,FA,
0,00000131,false,Rx,0,8,D3,FF,00,00,00,00,03,FF,
0,00000131,false,Rx,0,8,D3,FF,00,00,00,00,03,FF,
0,00000131,false,Rx,0,8,D3,FF,00,00,00,00,03,E0,
0,00000131,false,Rx,0,8,D3,FF,00,00,00,00,03,E0,
0,00000131,false,Rx,0,8,D3,FF,00,00,00,00,03,E0,
0,00000131,false,Rx,0,8,D3,FF,00,00,00,00,03,E0,
0,00000131,false,Rx,0,8,D3,FF,00,00,00,00,03,E0,
0,00000131,false,Rx,0,8,D3,FF,00,00,00,00,03,E0,
0,00000131,false,Rx,0,8,D3,FF,00,00,00,00,03,E0,
0,00000131,false,Rx,0,8,D3,FF,00,00,00,00,03,E0,
0,00000131,false,Rx,0,8,D3,FF,00,00,00,00,03,E0,
0,00000131,false,Rx,0,8,D3,FF,00,00,00,00,03,E0,
0,00000131,false,Rx,0,8,D3,FF,00,00,00,00,03,E0,
0,00000131,false,Rx,0,8,D3,FF,00,00,00,00,03,E0,
0,00000131,false,Rx,0,8,D3,FF,00,00,00,00,03,E0,
0,00000131,false,Rx,0,8,D3,FF,00,00,00,00,03,E0,
0,00000131,false,Rx,0,8,D3,FF,00,00,00,00,03,E0,
0,00000131,false,Rx,0,8,D3,FF,00,00,00,00,03,E0,
0,00000131,false,Rx,0,8,D3,FF,00,00,00,00,03,E0,
0,00000131,false,Rx,0,8,D3,FF,00,00,00,00,03,E0,
0,00000131,false,Rx,0,8,D3,FF,00,00,00,00,03,E0,
0,00000131,false,Rx,0,8,D3,FF,00,00,00,00,03,E0,
0,00000131,false,Rx,0,8,D3,FF,00,00,00,00,03,E0,
0,00000131,false,Rx,0,8,D3,FF,00,00,00,00,03,E0,
0,00000131,false,Rx,0,8,D3,FF,00,00,00,00,03,E0,
0,00000131,false,Rx,0,8,D3,FF,00,00,00,00,03,E0,
0,00000131,false,Rx,0,8,D3,FF,00,00,00,00,03,E0,
0,00000131,false,Rx,0,8,D3,FF,00,00,00,00,03,E0,
0,00000131,false,Rx,0,8,D3,FF,00,00,00,00,03,E0,
0,00000131,false,Rx,0,8,D3,FF,00,00,00,00,03,E0,
0,00000131,false,Rx,0,8,D3,FF,00,00,00,00,03,E0,
0,00000131,false,Rx,0,8,D3,FF,00,00,00,00,03,E0,
0,00000131,false,Rx,0,8,D3,FF,00,00,00,00,03,E0,
0,00000131,false,Rx,0,8,D3,FF,00,00,00,00,03,E0,
0,00000131,false,Rx,0,8,D3,FF,00,00,00,00,03,E0,
0,00000131,false,Rx,0,8,D3,FF,00,00,00,00,03,E0,
0,00000131,false,Rx,0,8,D3,FF,00,00,00,00,03,E0,
0,00000131,false,Rx,0,8,D3,FF,00,00,00,00,03,E0,
0,00000131,false,Rx,0,8,D3,FF,00,00,00,00,03,E0,
0,00000131,false,Rx,0,8,D3,FF,00,00,00,00,03,E0,
0,00000131,false,Rx,0,8,D3,FF,00,00,00,00,03,E0,
0,00000131,false,Rx,0,8,D3,FF,00,00,00,00,03,E0,
0,00000131,false,Rx,0,8,D3,FF,00,00,00,00,03,E0,
0,00000131,false,Rx,0,8,D3,FF,00,00,00,00,03,E0,
0,00000131,false,Rx,0,8,D3,FF,00,00,00,00,03,E0,
0,00000131,false,Rx,0,8,D3,FF,00,00,00,00,03,E0,
0,00000131,false,Rx,0,8,D3,FF,00,00,00,00,03,E0,
0,00000131,false,Rx,0,8,D3,FF,00,00,00,00,03,E0,
0,00000131,false,Rx,0,8,D3,FF,00,00,00,00,03,E0,
0,00000131,false,Rx,0,8,D3,FF,00,00,00,00,03,E0,
0,00000131,false,Rx,0,8,D3,FF,00,00,00,00,03,E0,
0,00000131,false,Rx,0,8,D3,FF,00,00,00,00,03,E0,
0,00000131,false,Rx,0,8,D3,FF,00,00,00,00,03,E0,
0,00000131,false,Rx,0,8,D3,FF,00,00,00,00,03,E0,
0,00000131,false,Rx,0,8,D3,FF,00,00,00,00,03,E0,
0,00000131,false,Rx,0,8,D3,FF,00,00,00,00,03,E0,
0,00000131,false,Rx,0,8,D3,FF,00,00,00,00,03,E0,
0,00000131,false,Rx,0,8,D3,FF,00,00,00,00,03,E0,
0,00000131,false,Rx,0,8,D3,FF,00,00,00,00,03,E0,
0,00000131,false,Rx,0,8,D3,FF,00,00,00,00,03,E0,
0,00000131,false,Rx,0,8,D3,FF,00,00,00,00,03,E0,
0,00000131,false,Rx,0,8,D3,FF,00,00,00,00,03,E0,
0,00000131,false,Rx,0,8,D3,FF,00,00,00,00,03,E0,
0,00000131,false,Rx,0,8,D3,FF,00,00,00,00,03,E0,
0,00000131,false,Rx,0,8,D3,FF,00,00,00,00,03,E0,
0,00000131,false,Rx,0,8,D3,FF,00,00,00,00,03,E0,
0,00000131,false,Rx,0,8,D3,FF,00,00,00,00,03,E0,
0,00000131,false,Rx,0,8,D3,FF,00,00,00,00,03,E0,
0,00000131,false,Rx,0,8,D3,FF,00,00,00,00,03,E0,
0,00000131,false,Rx,0,8,D3,FF,00,00,00,00,03,E0,
0,00000131,false,Rx,0,8,D3,FF,00,00,00,00,03,E0,
0,00000131,false,Rx,0,8,D3,FF,00,00,00,00,03,E0,
0,00000131,false,Rx,0,8,D3,FF,00,00,00,00,03,E0,
0,00000131,false,Rx,0,8,D3,FF,00,00,00,00,03,E0,
0,00000131,false,Rx,0,8,D3,FF,00,00,00,00,03,E0,
0,00000131,false,Rx,0,8,D3,FF,00,00,00,00,03,E0,
0,00000131,false,Rx,0,8,D3,FF,00,00,00,00,03,E0,
0,00000131,false,Rx,0,8,D3,FF,00,00,00,00,03,E0,
0,00000131,false,Rx,0,8,D3,FF,00,00,00,00,03,E0,
0,00000131,false,Rx,0,8,D3,FF,00,00,00,00,03,E0,
0,00000131,false,Rx,0,8,D3,FF,00,00,00,00,03,E0,
0,00000131,false,Rx,0,8,D3,FF,00,00,00,00,03,E0,
0,00000131,false,Rx,0,8,D3,FF,00,00,00,00,03,E0,
0,00000131,false,Rx,0,8,D3,FF,00,00,00,00,03,E0,
0,00000131,false,Rx,0,8,D3,FF,00,00,00,00,03,E0,
0,00000131,false,Rx,0,8,D3,FF,00,00,00,00,03,E0,
0,00000131,false,Rx,0,8,D3,FF,00,00,00,00,03,E0,
0,00000131,false,Rx,0,8,D3,FF,00,00,00,00,03,E0,
0,00000131,false,Rx,0,8,D3,FF,00,00,00,00,03,E0,
0,00000131,false,Rx,0,8,D3,FF,00,00,00,00,03,E0,
0,00000131,false,Rx,0,8,D3,FF,00,00,00,00,03,E0,
0,00000131,false,Rx,0,8,D3,FF,00,00,00,00,03,E0,
0,00000131,false,Rx,0,8,D3,FF,00,00,00,00,03,E0,
0,00000131,false,Rx,0,8,D3,FF,00,00,00,00,03,E0,
0,00000131,false,Rx,0,8,D3,FF,00,00,00,00,03,E0,
0,00000131,false,Rx,0,8,D3,FF,00,00,00,00,03,E0,
0,00000131,false,Rx,0,8,D3,FF,00,00,00,00,03,E0,
0,00000131,false,Rx,0,8,D3,FF,00,00,00,00,03,E0,
0,00000131,false,Rx,0,8,D3,FF,00,00,00,00,03,E0,
0,00000131,false,Rx,0,8,D3,FF,00,00,00,00,03,E0,
0,00000131,false,Rx,0,8,D3,FF,00,00,00,00,03,E0,
0,00000131,false,Rx,0,8,D3,FF,00,00,00,00,03,E0,
0,00000131,false,Rx,0,8,D3,FF,00,00,00,00,03,E0,
0,00000131,false,Rx,0,8,D3,FF,00,00,00,00,03,E0,
0,00000131,false,Rx,0,8,D3,FF,00,00,00,00,03,E0,
0,00000131,false,Rx,0,8,D3,FF,00,00,00,00,03,E0,
0,00000131,false,Rx,0,8,D3,FF,00,00,00,00,03,E0,
0,00000131,false,Rx,0,8,D3,FF,00,00,00,00,03,E0,
0,00000131,false,Rx,0,8,D3,FF,00,00,00,00,03,E0,
0,00000131,false,Rx,0,8,D3,FF,00,00,00,00,03,E0,
0,00000131,false,Rx,0,8,D3,FF,00,00,00,00,03,E0,
0,00000131,false,Rx,0,8,D3,FF,00,00,00,00,03,E0,
0,00000131,false,Rx,0,8,D3,FF,00,00,00,00,03,E0,
0,00000131,false,Rx,0,8,D3,FF,00,00,00,00,03,E0,
0,00000131,false,Rx,0,8,D3,FF,00,00,00,00,03,E0,
0,00000131,false,Rx,0,8,D3,FF,00,00,00,00,03,E0,
0,00000131,false,Rx,0,8,D3,FF,00,00,00,00,03,E0,
0,00000131,false,Rx,0,8,D3,FF,00,00,00,00,03,E0,
0,00000131,false,Rx,0,8,D3,FF,00,00,00,00,03,E0,
0,00000131,false,Rx,0,8,D3,FF,00,00,00,00,03,E0,
0,00000131,false,Rx,0,8,D3,FF,00,00,00,00,03,E0,
0,00000131,false,Rx,0,8,D3,FF,00,00,00,00,03,E0,
0,00000131,false,Rx,0,8,D3,FF,00,00,00,00,03,E0,
0,00000131,false,Rx,0,8,D3,FF,00,00,00,00,03,E0,
0,00000131,false,Rx,0,8,D3,FF,00,00,00,00,03,E0,
0,00000131,false,Rx,0,8,D3,FF,00,00,00,00,03,E0,
0,00000131,false,Rx,0,8,D3,FF,00,00,00,00,03,E0,
0,00000131,false,Rx,0,8,D3,FF,00,00,00,00,03,E0,
0,00000131,false,Rx,0,8,D3,FF,00,00,00,00,03,E0,
0,00000131,false,Rx,0,8,D3,FF,00,00,00,00,03,E0,
0,00000131,false,Rx,0,8,D3,FF,00,00,00,00,03,E0,
0,00000131,false,Rx,0,8,D3,FF,00,00,00,00,03,E0,
0,00000131,false,Rx,0,8,D3,FF,00,00,00,00,03,E0,
0,00000131,false,Rx,0,8,D3,FF,00,00,00,00,03,E0,
0,00000131,false,Rx,0,8,D3,FF,00,00,00,00,03,E0,
0,00000131,false,Rx,0,8,D3,FF,00,00,00,00,03,E0,
0,00000131,false,Rx,0,8,D3,FF,00,00,00,00,03,E0,
0,00000131,false,Rx,0,8,D3,FF,00,00,00,00,03,E0,
0,00000131,false,Rx,0,8,D3,FF,00,00,00,00,03,E0,
0,00000131,false,Rx,0,8,D3,FF,00,00,00,00,03,E0,
0,00000131,false,Rx,0,8,D3,FF,00,00,00,00,03,E0,
0,00000131,false,Rx,0,8,D3,FF,00,00,00,00,03,E0,
0,00000131,false,Rx,0,8,D3,FF,00,00,00,00,03,E0,
0,00000131,false,Rx,0,8,D3,FF,00,00,00,00,03,E0,
0,00000131,false,Rx,0,8,D3,FF,00,00,00,00,03,E0,
0,00000131,false,Rx,0,8,D3,FF,00,00,00,00,03,E0,
0,00000131,false,Rx,0,8,D3,FF,00,00,00,00,03,E0,
0,00000131,false,Rx,0,8,D3,FF,00,00,00,00,03,E0,
0,00000131,false,Rx,0,8,D3,FF,00,00,00,00,03,E0,
0,00000131,false,Rx,0,8,D3,FF,00,00,00,00,03,E0,
0,00000131,false,Rx,0,8,D3,FF,00,00,00,00,03,E0,
0,00000131,false,Rx,0,8,D3,FF,00,00,00,00,03,E0,
0,00000131,false,Rx,0,8,D3,FF,00,00,00,00,03,E0,
0,00000131,false,Rx,0,8,D3,FF,00,00,00,00,03,E0,
0,00000131,false,Rx,0,8,D3,FF,00,00,00,00,03,E0,
0,00000131,false,Rx,0,8,D3,FF,00,00,00,00,03,E0,
0,00000131,false,Rx,0,8,D3,FF,00,00,00,00,03,E0,
0,00000131,false,Rx,0,8,D3,FF,00,00,00,00,03,E0,
0,00000131,false,Rx,0,8,D3,FF,00,00,00,00,03,E0,
0,00000131,false,Rx,0,8,D3,FF,00,00,00,00,03,E0,
0,00000131,false,Rx,0,8,D3,FF,00,00,00,00,03,E0,
0,00000131,false,Rx,0,8,D3,FF,00,00,00,00,03,E0,
0,00000131,false,Rx,0,8,D3,FF,00,00,00,00,03,E0,
0,00000131,false,Rx,0,8,D3,FF,00,00,00,00,03,E0,
0,00000131,false,Rx,0,8,D3,FF,00,00,00,00,03,E0,
0,00000131,false,Rx,0,8,D3,FF,00,00,00,00,03,E0,
0,00000131,false,Rx,0,8,D3,FF,00,00,00,00,03,E0,
0,00000131,false,Rx,0,8,D3,FF,00,00,00,00,03,E0,
0,00000131,false,Rx,0,8,D3,FF,00,00,00,00,03,E0,
0,00000131,false,Rx,0,8,D3,FF,00,00,00,00,03,E0,
0,00000131,false,Rx,0,8,D3,FF,00,00,00,00,03,E0,
0,00000131,false,Rx,0,8,D3,FF,00,00,00,00,03,E0,
0,00000131,false,Rx,0,8,D3,FF,00,00,00,00,03,E0,
0,00000131,false,Rx,0,8,D3,FF,00,00,00,00,03,E0,
0,00000131,false,Rx,0,8,D3,FF,00,00,00,00,03,E0,
0,00000131,false,Rx,0,8,D3,FF,00,00,00,00,03,E0,
0,00000131,false,Rx,0,8,D3,FF,00,00,00,00,03,E0,
0,00000131,false,Rx,0,8,D3,FF,00,00,00,00,03,E0,
0,00000131,false,Rx,0,8,D3,FF,00,00,00,00,03,E0,
0,00000131,false,Rx,0,8,D3,FF,00,00,00,00,03,E0,
0,00000131,false,Rx,0,8,D3,FF,00,00,00,00,03,E0,
0,00000131,false,Rx,0,8,D3,FF,00,00,00,00,03,E0,
0,00000131,false,Rx,0,8,D3,FF,00,00,00,00,03,E0,
0,00000131,false,Rx,0,8,D3,FF,00,00,00,00,03,E0,
0,00000131,false,Rx,0,8,D3,FF,00,00,00,00,03,E0,
0,00000131,false,Rx,0,8,D3,FF,00,00,00,00,03,E0,
0,00000131,false,Rx,0,8,D3,FF,00,00,00,00,03,E0,
0,00000131,false,Rx,0,8,D3,FF,00,00,00,00,03,E0,
0,00000131,false,Rx,0,8,D3,FF,00,00,00,00,03,E0,
0,00000131,false,Rx,0,8,D3,FF,00,00,00,00,03,E0,
0,00000131,false,Rx,0,8,D3,FF,00,00,00,00,03,E0,
0,00000131,false,Rx,0,8,D3,FF,00,00,00,00,03,E0,
0,00000131,false,Rx,0,8,D3,FF,00,00,00,00,03,E0,
0,00000131,false,Rx,0,8,D3,FF,00,00,00,00,03,E0,
0,00000131,false,Rx,0,8,D3,FF,00,00,00,00,03,E0,
0,00000131,false,Rx,0,8,D3,FF,00,00,00,00,03,E0,
0,00000131,false,Rx,0,8,D3,FF,00,00,00,00,03,E0,
0,00000131,false,Rx,0,8,D3,FF,00,00,00,00,03,E0,
0,00000131,false,Rx,0,8,D3,FF,00,00,00,00,03,E0,
0,00000131,false,Rx,0,8,D3,FF,00,00,00,00,03,E0,
0,00000131,false,Rx,0,8,D3,FF,00,00,00,00,03,E0,
0,00000131,false,Rx,0,8,D3,FF,00,00,00,00,03,E0,
0,00000131,false,Rx,0,8,D3,FF,00,00,00,00,03,E0,
0,00000131,false,Rx,0,8,D3,FF,00,00,00,00,03,E0,
0,00000131,false,Rx,0,8,D3,FF,00,00,00,00,03,E0,
0,00000131,false,Rx,0,8,D3,FF,00,00,00,00,03,E0,
0,00000131,false,Rx,0,8,D3,FF,00,00,00,00,03,E0,
0,00000131,false,Rx,0,8,D3,FF,00,00,00,00,03,E0,
0,00000131,false,Rx,0,8,D3,FF,00,00,00,00,03,E0,
0,00000131,false,Rx,0,8,D3,FF,00,00,00,00,03,E0,
0,00000131,false,Rx,0,8,D3,FF,00,00,00,00,03,E0,
0,00000131,false,Rx,0,8,D3,FF,00,00,00,00,03,E0,
0,00000131,false,Rx,0,8,D3,FF,00,00,00,00,03,E0,
0,00000131,false,Rx,0,8,D3,FF,00,00,00,00,03,E0,
0,00000131,false,Rx,0,8,D3,FF,00,00,00,00,03,E0,
0,00000131,false,Rx,0,8,D3,FF,00,00,00,00,03,E0,
0,00000131,false,Rx,0,8,D3,FF,00,00,00,00,03,E0,
0,00000131,false,Rx,0,8,D3,FF,00,00,00,00,03,E0,
0,00000131,false,Rx,0,8,D3,FF,00,00,00,00,03,E0,
0,00000131,false,Rx,0,8,D3,FF,00,00,00,00,03,E0,
0,00000131,false,Rx,0,8,D3,FF,00,00,00,00,03,E0,
0,00000131,false,Rx,0,8,D3,FF,00,00,00,00,03,E0,
0,00000131,false,Rx,0,8,D3,FF,00,00,00,00,03,E0,
0,00000131,false,Rx,0,8,D3,FF,00,00,00,00,03,E0,
0,00000131,false,Rx,0,8,D3,FF,00,00,00,00,03,E0,
0,00000131,false,Rx,0,8,D3,FF,00,00,00,00,03,E0,
0,00000131,false,Rx,0,8,D3,FF,00,00,00,00,03,E0,
0,00000131,false,Rx,0,8,D3,FF,00,00,00,00,03,E0,
0,00000131,false,Rx,0,8,D3,FF,00,00,00,00,03,E0,
0,00000131,false,Rx,0,8,D3,FF,00,00,00,00,03,E0,
0,00000131,false,Rx,0,8,D3,FF,00,00,00,00,03,E0,
0,00000131,false,Rx,0,8,D3,FF,00,00,00,00,03,E0,
0,00000131,false,Rx,0,8,D3,FF,00,00,00,00,03,E0,
0,00000131,false,Rx,0,8,D3,FF,00,00,00,00,03,E0,
0,00000131,false,Rx,0,8,D3,FF,00,00,00,00,03,E0,
0,00000131,false,Rx,0,8,D3,FF,00,00,00,00,03,E0,
0,00000131,false,Rx,0,8,D3,FF,00,00,00,00,03,E0,
0,00000131,false,Rx,0,8,D3,FF,00,00,00,00,03,E0,
0,00000131,false,Rx,0,8,D3,FF,00,00,00,00,03,E0,
0,00000131,false,Rx,0,8,D3,FF,00,00,00,00,03,E0,
0,00000131,false,Rx,0,8,D3,FF,00,00,00,00,03,E0,
0,00000131,false,Rx,0,8,D3,FF,00,00,00,00,03,E0,
0,00000131,false,Rx,0,8,D3,FF,00,00,00,00,03,E0,
0,00000131,false,Rx,0,8,D3,FF,00,00,00,00,03,E0,
0,00000131,false,Rx,0,8,D3,FF,00,00,00,00,03,E0,
0,00000131,false,Rx,0,8,D3,FF,00,00,00,00,03,E0,
0,00000131,false,Rx,0,8,D3,FF,00,00,00,00,03,E0,
0,00000131,false,Rx,0,8,D3,FF,00,00,00,00,03,E0,
0,00000131,false,Rx,0,8,D3,FF,00,00,00,00,03,E0,
0,00000131,false,Rx,0,8,D3,FF,00,00,00,00,03,E0,
0,00000131,false,Rx,0,8,D3,FF,00,00,00,00,03,E0,
0,00000131,false,Rx,0,8,D3,FF,00,00,00,00,03,FF,
0,00000131,false,Rx,0,8,D3,FF,00,00,00,00,03,FF,
0,00000131,false,Rx,0,8,D3,FF,00,00,00,00,03,FF,
0,00000131,false,Rx,0,8,D3,FF,00,00,00,00,03,FF,
0,00000131,false,Rx,0,8,D3,FF,00,00,00,00,03,FF,
0,00000131,false,Rx,0,8,D3,FF,00,00,00,00,03,FF,
0,00000131,false,Rx,0,8,D3,FF,00,00,00,00,03,FF,
0,00000131,false,Rx,0,8,D3,FF,00,00,00,00,03,FF,
0,00000131,false,Rx,0,8,D3,FF,00,00,00,00,03,FF,
0,00000131,false,Rx,0,8,D3,FF,00,00,00,00,03,FF,
0,00000131,false,Rx,0,8,D3,FF,00,00,00,00,03,FE,
0,00000131,false,Rx,0,8,D3,FF,00,00,00,00,03,FE,
0,00000131,false,Rx,0,8,D3,FF,00,00,00,00,03,FE,
0,00000131,false,Rx,0,8,D3,FF,00,00,00,00,7B,FE,
0,00000131,false,Rx,0,8,D3,FF,00,00,00,00,7B,FE,
0,00000131,false,Rx,0,8,D3,FF,00,00,00,00,7B,FF,
0,00000131,false,Rx,0,8,D3,FF,00,00,00,00,7B,FF,
0,00000131,false,Rx,0,8,D3,FF,00,00,00,00,7B,FE,
0,00000131,false,Rx,0,8,D3,FF,00,00,00,00,7B,FE,
0,00000131,false,Rx,0,8,D3,FF,00,00,00,00,7B,FE,
0,00000131,false,Rx,0,8,D3,FF,00,00,00,00,7B,FE,
0,00000131,false,Rx,0,8,D3,FF,00,00,00,00,7B,FE,
0,00000131,false,Rx,0,8,D3,FF,00,00,00,00,7B,FE,
0,00000131,false,Rx,0,8,D3,FF,00,00,00,00,7B,FE,
0,00000131,false,Rx,0,8,D3,FF,00,00,00,00,7B,FE,
0,00000131,false,Rx,0,8,D3,FF,00,00,00,00,7F,FE,
0,00000131,false,Rx,0,8,D3,FF,00,00,00,00,7F,FF,
0,00000131,false,Rx,0,8,D3,FF,00,00,00,00,7F,FF,
0,00000131,false,Rx,0,8,D3,FF,00,00,00,00,7F,FF,
0,00000131,false,Rx,0,8,D3,FF,00,00,00,00,7F,FF,
0,00000131,false,Rx,0,8,D3,FF,00,00,00,00,7F,FF,
0,00000131,false,Rx,0,8,D3,FF,00,00,00,00,7F,FF,
0,00000131,false,Rx,0,8,D3,FF,00,00,00,00,03,FF,
0,00000131,false,Rx,0,8,D3,FF,00,00,00,00,03,FF,
0,00000131,false,Rx,0,8,D3,FF,00,00,00,00,03,FF,
0,00000131,false,Rx,0,8,D3,FF,00,00,00,00,03,FF,
0,00000131,false,Rx,0,8,D3,FF,00,00,00,00,03,FF,
0,00000131,false,Rx,0,8,D3,FF,00,00,00,00,03,FF,
0,00000131,false,Rx,0,8,D3,FF,00,00,00,00,03,FF,
0,00000131,false,Rx,0,8,D3,FF,00,00,00,00,7B,FF,
0,00000131,false,Rx,0,8,D3,FF,00,00,00,00,77,FF,
0,00000131,false,Rx,0,8,D3,FF,00,00,00,00,77,FF,
0,00000131,false,Rx,0,8,D3,FF,00,00,00,00,03,FA,
0,00000131,false,Rx,0,8,D3,FF,00,00,00,00,03,FA,
0,00000131,false,Rx,0,8,D3,FF,00,00,00,00,03,FF,
0,00000131,false,Rx,0,8,D3,FF,00,00,00,00,03,FF,
0,00000131,false,Rx,0,8,D3,FF,00,00,00,00,03,FF,
0,00000131,false,Rx,0,8,D3,FF,00,00,00,00,03,FF,
0,00000131,false,Rx,0,8,D3,FF,00,00,00,00,03,FB,
0,00000131,false,Rx,0,8,D3,FF,00,00,00,00,03,E0,
0,00000131,false,Rx,0,8,D3,FF,00,00,00,00,03,E0,
0,00000131,false,Rx,0,8,D3,FF,00,00,00,00,03,E0,
0,00000131,false,Rx,0,8,D3,FF,00,00,00,00,03,E0,
0,00000131,false,Rx,0,8,D3,FF,00,00,00,00,03,E0,
0,00000131,false,Rx,0,8,D3,FF,00,00,00,00,03,E0,
0,00000131,false,Rx,0,8,D3,FF,00,00,00,00,03,E0,
0,00000131,false,Rx,0,8,D3,FF,00,00,00,00,03,E0,
0,00000131,false,Rx,0,8,D3,FF,00,00,00,00,03,E0,
0,00000131,false,Rx,0,8,D3,FF,00,00,00,00,03,E0,
0,00000131,false,Rx,0,8,D3,FF,00,00,00,00,03,E0,
0,00000131,false,Rx,0,8,D3,FF,00,00,00,00,03,E0,
0,00000131,false,Rx,0,8,D3,FF,00,00,00,00,03,E0,
0,00000131,false,Rx,0,8,D3,FF,00,00,00,00,03,E0,
0,00000131,false,Rx,0,8,D3,FF,00,00,00,00,03,E0,
0,00000131,false,Rx,0,8,D3,FF,00,00,00,00,03,E0,
0,00000131,false,Rx,0,8,D3,FF,00,00,00,00,03,E0,
0,00000131,false,Rx,0,8,D3,FF,00,00,00,00,03,E0,
0,00000131,false,Rx,0,8,D3,FF,00,00,00,00,03,E0,
0,00000131,false,Rx,0,8,D3,FF,00,00,00,00,03,E0,
0,00000131,false,Rx,0,8,D3,FF,00,00,00,00,03,E0,
0,00000131,false,Rx,0,8,D3,FF,00,00,00,00,03,E0,
0,00000131,false,Rx,0,8,D3,FF,00,00,00,00,03,E0,
0,00000131,false,Rx,0,8,D3,FF,00,00,00,00,03,E0,
0,00000131,false,Rx,0,8,D3,FF,00,00,00,00,03,E0,
0,00000131,false,Rx,0,8,D3,FF,00,00,00,00,03,E0,
0,00000131,false,Rx,0,8,D3,FF,00,00,00,00,03,E0,
0,00000131,false,Rx,0,8,D3,FF,00,00,00,00,03,E0,
0,00000131,false,Rx,0,8,D3,FF,00,00,00,00,03,E0,
0,00000131,false,Rx,0,8,D3,FF,00,00,00,00,03,E0,
0,00000131,false,Rx,0,8,D3,FF,00,00,00,00,03,E0,
0,00000131,false,Rx,0,8,D3,FF,00,00,00,00,03,E0,
0,00000131,false,Rx,0,8,D3,FF,00,00,00,00,03,E0,
0,00000131,false,Rx,0,8,D3,FF,00,00,00,00,03,E0,
0,00000131,false,Rx,0,8,D3,FF,00,00,00,00,03,E0,
0,00000131,false,Rx,0,8,D3,FF,00,00,00,00,03,E0,
0,00000131,false,Rx,0,8,D3,FF,00,00,00,00,03,E0,
0,00000131,false,Rx,0,8,D3,FF,00,00,00,00,03,E0,
0,00000131,false,Rx,0,8,D3,FF,00,00,00,00,03,E0,
0,00000131,false,Rx,0,8,D3,FF,00,00,00,00,03,E0,
0,00000131,false,Rx,0,8,D3,FF,00,00,00,00,03,E0,
0,00000131,false,Rx,0,8,D3,FF,00,00,00,00,03,E0,
0,00000131,false,Rx,0,8,D3,FF,00,00,00,00,03,E0,
0,00000131,false,Rx,0,8,D3,FF,00,00,00,00,03,E0,
0,00000131,false,Rx,0,8,D3,FF,00,00,00,00,03,E0,
0,00000131,false,Rx,0,8,D3,FF,00,00,00,00,03,E0,
0,00000131,false,Rx,0,8,D3,FF,00,00,00,00,03,E0,
0,00000131,false,Rx,0,8,D3,FF,00,00,00,00,03,E0,
0,00000131,false,Rx,0,8,D3,FF,00,00,00,00,03,E0,
0,00000131,false,Rx,0,8,D3,FF,00,00,00,00,03,E0,
0,00000131,false,Rx,0,8,D3,FF,00,00,00,00,03,E0,
0,00000131,false,Rx,0,8,D3,FF,00,00,00,00,03,E0,
0,00000131,false,Rx,0,8,D3,FF,00,00,00,00,03,E0,
0,00000131,false,Rx,0,8,D3,FF,00,00,00,00,03,E0,
0,00000131,false,Rx,0,8,D3,FF,00,00,00,00,03,E0,
0,00000131,false,Rx,0,8,D3,FF,00,00,00,00,03,E0,
0,00000131,false,Rx,0,8,D3,FF,00,00,00,00,03,E0,
0,00000131,false,Rx,0,8,D3,FF,00,00,00,00,03,E0,
0,00000131,false,Rx,0,8,D3,FF,00,00,00,00,03,E0,
0,00000131,false,Rx,0,8,D3,FF,00,00,00,00,03,E0,
0,00000131,false,Rx,0,8,D3,FF,00,00,00,00,03,E0,
0,00000131,false,Rx,0,8,D3,FF,00,00,00,00,03,E0,
0,00000131,false,Rx,0,8,D3,FF,00,00,00,00,03,E0,
0,00000131,false,Rx,0,8,D3,FF,00,00,00,00,03,E0,
0,00000131,false,Rx,0,8,D3,FF,00,00,00,00,03,E0,
0,00000131,false,Rx,0,8,D3,FF,00,00,00,00,03,E0,
0,00000131,false,Rx,0,8,D3,FF,00,00,00,00,03,E0,
0,00000131,false,Rx,0,8,D3,FF,00,00,00,00,03,E0,
0,00000131,false,Rx,0,8,D3,FF,00,00,00,00,03,E0,
0,00000131,false,Rx,0,8,D3,FF,00,00,00,00,03,E0,
0,00000131,false,Rx,0,8,D3,FF,00,00,00,00,03,E0,
0,00000131,false,Rx,0,8,D3,FF,00,00,00,00,03,E0,
0,00000131,false,Rx,0,8,D3,FF,00,00,00,00,03,E0,
0,00000131,false,Rx,0,8,D3,FF,00,00,00,00,03,E0,
0,00000131,false,Rx,0,8,D3,FF,00,00,00,00,03,E0,
0,00000131,false,Rx,0,8,D3,FF,00,00,00,00,03,E0,
0,00000131,false,Rx,0,8,D3,FF,00,00,00,00,03,E0,
0,00000131,false,Rx,0,8,D3,FF,00,00,00,00,03,E0,
0,00000131,false,Rx,0,8,D3,FF,00,00,00,00,03,E0,
0,00000131,false,Rx,0,8,D3,FF,00,00,00,00,03,E0,
0,00000131,false,Rx,0,8,D3,FF,00,00,00,00,03,E0,
0,00000131,false,Rx,0,8,D3,FF,00,00,00,00,03,E0,
0,00000131,false,Rx,0,8,D3,FF,00,00,00,00,03,E0,
0,00000131,false,Rx,0,8,D3,FF,00,00,00,00,03,E0,
0,00000131,false,Rx,0,8,D3,FF,00,00,00,00,03,E0,
0,00000131,false,Rx,0,8,D3,FF,00,00,00,00,03,E0,
0,00000131,false,Rx,0,8,D3,FF,00,00,00,00,03,E0,
0,00000131,false,Rx,0,8,D3,FF,00,00,00,00,03,E0,
0,00000131,false,Rx,0,8,D3,FF,00,00,00,00,03,E0,
0,00000131,false,Rx,0,8,D3,FF,00,00,00,00,03,E0,
0,00000131,false,Rx,0,8,D3,FF,00,00,00,00,03,E0,
0,00000131,false,Rx,0,8,D3,FF,00,00,00,00,03,E0,
0,00000131,false,Rx,0,8,D3,FF,00,00,00,00,03,E0,
0,00000131,false,Rx,0,8,D3,FF,00,00,00,00,03,E0,
0,00000131,false,Rx,0,8,D3,FF,00,00,00,00,03,E0,
0,00000131,false,Rx,0,8,D3,FF,00,00,00,00,03,E0,
0,00000131,false,Rx,0,8,D3,FF,00,00,00,00,03,E0,
0,00000131,false,Rx,0,8,D3,FF,00,00,00,00,03,E0,
0,00000131,false,Rx,0,8,D3,FF,00,00,00,00,03,E0,
0,00000131,false,Rx,0,8,D3,FF,00,00,00,00,03,E0,
0,00000131,false,Rx,0,8,D3,FF,00,00,00,00,03,E0,
0,00000131,false,Rx,0,8,D3,FF,00,00,00,00,03,E0,
0,00000131,false,Rx,0,8,D3,FF,00,00,00,00,03,E0,
0,00000131,false,Rx,0,8,D3,FF,00,00,00,00,03,E0,
0,00000131,false,Rx,0,8,D3,FF,00,00,00,00,03,E0,
0,00000131,false,Rx,0,8,D3,FF,00,00,00,00,03,E0,
0,00000131,false,Rx,0,8,D3,FF,00,00,00,00,03,E0,
0,00000131,false,Rx,0,8,D3,FF,00,00,00,00,03,E0,
0,00000131,false,Rx,0,8,D3,FF,00,00,00,00,03,E0,
0,00000131,false,Rx,0,8,D3,FF,00,00,00,00,03,E0,
0,00000131,false,Rx,0,8,D3,FF,00,00,00,00,03,E0,
0,00000131,false,Rx,0,8,D3,FF,00,00,00,00,03,E0,
0,00000131,false,Rx,0,8,D3,FF,00,00,00,00,03,E0,
0,00000131,false,Rx,0,8,D3,FF,00,00,00,00,03,E0,
0,00000131,false,Rx,0,8,D3,FF,00,00,00,00,03,E0,
0,00000131,false,Rx,0,8,D3,FF,00,00,00,00,03,E0,
0,00000131,false,Rx,0,8,D3,FF,00,00,00,00,03,E0,
0,00000131,false,Rx,0,8,D3,FF,00,00,00,00,03,E0,
0,00000131,false,Rx,0,8,D3,FF,00,00,00,00,03,E0,
0,00000131,false,Rx,0,8,D3,FF,00,00,00,00,03,E0,
0,00000131,false,Rx,0,8,D3,FF,00,00,00,00,03,E0,
0,00000131,false,Rx,0,8,D3,FF,00,00,00,00,03,E0,
0,00000131,false,Rx,0,8,D3,FF,00,00,00,00,03,E0,
0,00000131,false,Rx,0,8,D3,FF,00,00,00,00,03,E0,
0,00000131,false,Rx,0,8,D3,FF,00,00,00,00,03,E0,
0,00000131,false,Rx,0,8,D3,FF,00,00,00,00,03,E0,
0,00000131,false,Rx,0,8,D3,FF,00,00,00,00,03,E0,
0,00000131,false,Rx,0,8,D3,FF,00,00,00,00,03,E0,
0,00000131,false,Rx,0,8,D3,FF,00,00,00,00,03,E0,
0,00000131,false,Rx,0,8,D3,FF,00,00,00,00,03,E0,
0,00000131,false,Rx,0,8,D3,FF,00,00,00,00,03,E0,
0,00000131,false,Rx,0,8,D3,FF,00,00,00,00,03,E0,
0,00000131,false,Rx,0,8,D3,FF,00,00,00,00,03,E0,
0,00000131,false,Rx,0,8,D3,FF,00,00,00,00,03,E0,
0,00000131,false,Rx,0,8,D3,FF,00,00,00,00,03,E0,
0,00000131,false,Rx,0,8,D3,FF,00,00,00,00,03,E0,
0,00000131,false,Rx,0,8,D3,FF,00,00,00,00,03,E0,
0,00000131,false,Rx,0,8,D3,FF,00,00,00,00,03,E0,
0,00000131,false,Rx,0,8,D3,FF,00,00,00,00,03,E0,
0,00000131,false,Rx,0,8,D3,FF,00,00,00,00,03,E0,
0,00000131,false,Rx,0,8,D3,FF,00,00,00,00,03,E0,
0,00000131,false,Rx,0,8,D3,FF,00,00,00,00,03,E0,
0,00000131,false,Rx,0,8,D3,FF,00,00,00,00,03,E0,
0,00000131,false,Rx,0,8,D3,FF,00,00,00,00,03,E0,
0,00000131,false,Rx,0,8,D3,FF,00,00,00,00,03,E0,
0,00000131,false,Rx,0,8,D3,FF,00,00,00,00,03,E0,
0,00000131,false,Rx,0,8,D3,FF,00,00,00,00,03,E0,
0,00000131,false,Rx,0,8,D3,FF,00,00,00,00,03,E0,
0,00000131,false,Rx,0,8,D3,FF,00,00,00,00,03,E0,
0,00000131,false,Rx,0,8,D3,FF,00,00,00,00,03,E0,
0,00000131,false,Rx,0,8,D3,FF,00,00,00,00,03,E0,
0,00000131,false,Rx,0,8,D3,FF,00,00,00,00,03,E0,
0,00000131,false,Rx,0,8,D3,FF,00,00,00,00,03,E0,
0,00000131,false,Rx,0,8,D3,FF,00,00,00,00,03,E0,
0,00000131,false,Rx,0,8,D3,FF,00,00,00,00,03,E0,
0,00000131,false,Rx,0,8,D3,FF,00,00,00,00,03,E0,
0,00000131,false,Rx,0,8,D3,FF,00,00,00,00,03,E0,
0,00000131,false,Rx,0,8,D3,FF,00,00,00,00,03,E0,
0,00000131,false,Rx,0,8,D3,FF,00,00,00,00,03,E0,
0,00000131,false,Rx,0,8,D3,FF,00,00,00,00,03,E0,
0,00000131,false,Rx,0,8,D3,FF,00,00,00,00,03,E0,
0,00000131,false,Rx,0,8,D3,FF,00,00,00,00,03,E0,
0,00000131,false,Rx,0,8,D3,FF,00,00,00,00,03,E0,
0,00000131,false,Rx,0,8,D3,FF,00,00,00,00,03,E0,
0,00000131,false,Rx,0,8,D3,FF,00,00,00,00,03,E0,
0,00000131,false,Rx,0,8,D3,FF,00,00,00,00,03,E0,
0,00000131,false,Rx,0,8,D3,FF,00,00,00,00,03,E0,
0,00000131,false,Rx,0,8,D3,FF,00,00,00,00,03,E0,
0,00000131,false,Rx,0,8,D3,FF,00,00,00,00,03,E0,
0,00000131,false,Rx,0,8,D3,FF,00,00,00,00,03,E0,
0,00000131,false,Rx,0,8,D3,FF,00,00,00,00,03,E0,
0,00000131,false,Rx,0,8,D3,FF,00,00,00,00,03,E0,
0,00000131,false,Rx,0,8,D3,FF,00,00,00,00,03,E0,
0,00000131,false,Rx,0,8,D3,FF,00,00,00,00,03,E0,
0,00000131,false,Rx,0,8,D3,FF,00,00,00,00,03,E0,
0,00000131,false,Rx,0,8,D3,FF,00,00,00,00,03,E0,
0,00000131,false,Rx,0,8,D3,FF,00,00,00,00,03,E0,
0,00000131,false,Rx,0,8,D3,FF,00,00,00,00,03,E0,
0,00000131,false,Rx,0,8,D3,FF,00,00,00,00,03,E0,
0,00000131,false,Rx,0,8,D3,FF,00,00,00,00,03,E0,
0,00000131,false,Rx,0,8,D3,FF,00,00,00,00,03,E0,
0,00000131,false,Rx,0,8,D3,FF,00,00,00,00,03,E0,
0,00000131,false,Rx,0,8,D3,FF,00,00,00,00,03,E0,
0,00000131,false,Rx,0,8,D3,FF,00,00,00,00,03,E0,
0,00000131,false,Rx,0,8,D3,FF,00,00,00,00,03,E0,
0,00000131,false,Rx,0,8,D3,FF,00,00,00,00,03,E0,
0,00000131,false,Rx,0,8,D3,FF,00,00,00,00,03,E0,
0,00000131,false,Rx,0,8,D3,FF,00,00,00,00,03,E0,
0,00000131,false,Rx,0,8,D3,FF,00,00,00,00,03,E0,
0,00000131,false,Rx,0,8,D3,FF,00,00,00,00,03,E0,
0,00000131,false,Rx,0,8,D3,FF,00,00,00,00,03,E0,
0,00000131,false,Rx,0,8,D3,FF,00,00,00,00,03,E0,
0,00000131,false,Rx,0,8,D3,FF,00,00,00,00,03,E0,
0,00000131,false,Rx,0,8,D3,FF,00,00,00,00,03,E0,
0,00000131,false,Rx,0,8,D3,FF,00,00,00,00,03,E0,
0,00000131,false,Rx,0,8,D3,FF,00,00,00,00,03,E0,
0,00000131,false,Rx,0,8,D3,FF,00,00,00,00,03,E0,
0,00000131,false,Rx,0,8,D3,FF,00,00,00,00,03,E0,
0,00000131,false,Rx,0,8,D3,FF,00,00,00,00,03,E0,
0,00000131,false,Rx,0,8,D3,FF,00,00,00,00,03,E0,
0,00000131,false,Rx,0,8,D3,FF,00,00,00,00,03,E0,
0,00000131,false,Rx,0,8,D3,FF,00,00,00,00,03,E0,
0,00000131,false,Rx,0,8,D3,FF,00,00,00,00,03,E0,
0,00000131,false,Rx,0,8,D3,FF,00,00,00,00,03,E0,
0,00000131,false,Rx,0,8,D3,FF,00,00,00,00,03,E0,
0,00000131,false,Rx,0,8,D3,FF,00,00,00,00,03,E0,
0,00000131,false,Rx,0,8,D3,FF,00,00,00,00,03,E0,
0,00000131,false,Rx,0,8,D3,FF,00,00,00,00,03,E0,
0,00000131,false,Rx,0,8,D3,FF,00,00,00,00,03,E0,
0,00000131,false,Rx,0,8,D3,FF,00,00,00,00,03,E0,
0,00000131,false,Rx,0,8,D3,FF,00,00,00,00,03,E0,
0,00000131,false,Rx,0,8,D3,FF,00,00,00,00,03,E0,
0,00000131,false,Rx,0,8,D3,FF,00,00,00,00,03,E0,
0,00000131,false,Rx,0,8,D3,FF,00,00,00,00,03,E0,
0,00000131,false,Rx,0,8,D3,FF,00,00,00,00,03,E0,
0,00000131,false,Rx,0,8,D3,FF,00,00,00,00,03,E0,
0,00000131,false,Rx,0,8,D3,FF,00,00,00,00,03,E0,
0,00000131,false,Rx,0,8,D3,FF,00,00,00,00,03,E0,
0,00000131,false,Rx,0,8,D3,FF,00,00,00,00,03,E0,
0,00000131,false,Rx,0,8,D3,FF,00,00,00,00,03,E0,
0,00000131,false,Rx,0,8,D3,FF,00,00,00,00,03,E0,
0,00000131,false,Rx,0,8,D3,FF,00,00,00,00,03,E0,
0,00000131,false,Rx,0,8,D3,FF,00,00,00,00,03,E0,
0,00000131,false,Rx,0,8,D3,FF,00,00,00,00,03,E0,
0,00000131,false,Rx,0,8,D3,FF,00,00,00,00,03,E0,
0,00000131,false,Rx,0,8,D3,FF,00,00,00,00,03,E0,
0,00000131,false,Rx,0,8,D3,FF,00,00,00,00,03,E0,
0,00000131,false,Rx,0,8,D3,FF,00,00,00,00,03,E0,
0,00000131,false,Rx,0,8,D3,FF,00,00,00,00,03,E0,
0,00000131,false,Rx,0,8,D3,FF,00,00,00,00,03,E0,
0,00000131,false,Rx,0,8,D3,FF,00,00,00,00,03,E0,
0,00000131,false,Rx,0,8,D3,FF,00,00,00,00,03,E0,
0,00000131,false,Rx,0,8,D3,FF,00,00,00,00,03,E0,
0,00000131,false,Rx,0,8,D3,FF,00,00,00,00,03,E0,
0,00000131,false,Rx,0,8,D3,FF,00,00,00,00,03,E0,
0,00000131,false,Rx,0,8,D3,FF,00,00,00,00,03,E0,
0,00000131,false,Rx,0,8,D3,FF,00,00,00,00,03,E0,
0,00000131,false,Rx,0,8,D3,FF,00,00,00,00,03,E0,
0,00000131,false,Rx,0,8,D3,FF,00,00,00,00,03,E0,
0,00000131,false,Rx,0,8,D3,FF,00,00,00,00,03,E0,
0,00000131,false,Rx,0,8,D3,FF,00,00,00,00,03,E0,
0,00000131,false,Rx,0,8,D3,FF,00,00,00,00,03,E0,
0,00000131,false,Rx,0,8,D3,FF,00,00,00,00,03,E0,
0,00000131,false,Rx,0,8,D3,FF,00,00,00,00,03,E0,
0,00000131,false,Rx,0,8,D3,FF,00,00,00,00,03,E0,
0,00000131,false,Rx,0,8,D3,FF,00,00,00,00,03,E0,
0,00000131,false,Rx,0,8,D3,FF,00,00,00,00,03,E0,
0,00000131,false,Rx,0,8,D3,FF,00,00,00,00,03,E0,
0,00000131,false,Rx,0,8,D3,FF,00,00,00,00,03,E0,
0,00000131,false,Rx,0,8,D3,FF,00,00,00,00,03,E0,
0,00000131,false,Rx,0,8,D3,FF,00,00,00,00,03,E0,
0,00000131,false,Rx,0,8,D3,FF,00,00,00,00,03,FF,
0,00000131,false,Rx,0,8,D3,FF,00,00,00,00,03,FF,
0,00000131,false,Rx,0,8,D3,FF,00,00,00,00,03,FF,
0,00000131,false,Rx,0,8,D3,FF,00,00,00,00,03,FF,
0,00000131,false,Rx,0,8,D3,FF,00,00,00,00,03,FF,
0,00000131,false,Rx,0,8,D3,FF,00,00,00,00,03,FF,
0,00000131,false,Rx,0,8,D3,FF,00,00,00,00,03,FF,
0,00000131,false,Rx,0,8,D3,FF,00,00,00,00,03,FF,
0,00000131,false,Rx,0,8,D3,FF,00,00,00,00,03,FF,
0,00000131,false,Rx,0,8,D3,FF,00,00,00,00,03,FF,
0,00000131,false,Rx,0,8,D3,FF,00,00,00,00,03,FF,
0,00000131,false,Rx,0,8,D3,FF,00,00,00,00,7F,FF,
0,00000131,false,Rx,0,8,D3,FF,00,00,00,00,7F,E0,
0,00000131,false,Rx,0,8,D3,FF,00,00,00,00,7F,FE,
0,00000131,false,Rx,0,8,D3,FF,00,00,00,00,7F,FF,
0,00000131,false,Rx,0,8,D3,FF,00,00,00,00,7B,FF,
0,00000131,false,Rx,0,8,D3,FF,00,00,00,00,7F,FF,
0,00000131,false,Rx,0,8,D3,FF,00,00,00,00,7B,FF,
0,00000131,false,Rx,0,8,D3,FF,00,00,00,00,7B,FF,
0,00000131,false,Rx,0,8,D3,FF,00,00,00,00,7B,FF,
0,00000131,false,Rx,0,8,D3,FF,00,00,00,00,77,FF,
0,00000131,false,Rx,0,8,D3,FF,00,00,00,00,03,FE,
0,00000131,false,Rx,0,8,D3,FF,00,00,00,00,03,DE,
0,00000131,false,Rx,0,8,D3,FF,00,00,00,00,03,DE,
0,00000131,false,Rx,0,8,93,83,00,00,00,00,63,DE,
0,00000131,false,Rx,0,8,93,83,00,00,00,00,63,DE,
0,00000131,false,Rx,0,8,93,83,00,00,00,00,03,9D,
0,00000131,false,Rx,0,8,93,83,00,00,00,00,03,9D,
0,00000131,false,Rx,0,8,93,83,00,00,00,00,03,7D,
0,00000131,false,Rx,0,8,93,83,00,00,00,00,03,7D,
0,00000131,false,Rx,0,8,93,83,00,00,00,00,03,7D,
0,00000131,false,Rx,0,8,93,83,00,00,00,00,03,7D,
0,00000131,false,Rx,0,8,93,83,00,00,00,00,03,7D,
0,00000131,false,Rx,0,8,93,83,00,00,00,00,03,7D,
0,00000131,false,Rx,0,8,93,83,00,00,00,00,03,5D,
0,00000131,false,Rx,0,8,93,83,00,00,00,00,03,5D,
0,00000131,false,Rx,0,8,93,83,00,00,00,00,03,1E,
0,00000131,false,Rx,0,8,93,83,00,00,00,00,03,5E,
0,00000131,false,Rx,0,8,D3,FB,00,00,00,00,03,5E,
0,00000131,false,Rx,0,8,D3,FF,00,00,00,00,03,5F,
0,00000131,false,Rx,0,8,D3,FF,00,00,00,00,03,5F,
0,00000131,false,Rx,0,8,D3,FF,00,00,00,00,03,5F,
0,00000131,false,Rx,0,8,D3,FF,00,00,00,00,03,5F,
0,00000131,false,Rx,0,8,D3,FF,00,00,00,00,00,1F,
0,00000131,false,Rx,0,8,D3,FF,00,00,00,00,00,1F,
0,00000131,false,Rx,0,8,D3,FF,00,00,00,00,00,1F,
0,00000131,false,Rx,0,8,D3,FF,00,00,00,00,00,1F,
0,00000131,false,Rx,0,8,D3,FF,00,00,00,00,00,1E,
0,00000131,false,Rx,0,8,D3,FF,00,00,00,00,00,1E,
0,00000131,false,Rx,0,8,D3,FF,00,00,00,00,00,1E,
0,00000131,false,Rx,0,8,D3,FF,00,00,00,00,00,1E,
0,00000131,false,Rx,0,8,D3,FF,00,00,00,00,00,1E,
0,00000131,false,Rx,0,8,D3,FF,00,00,00,00,00,1E,
0,00000131,false,Rx,0,8,93,83,00,00,00,00,00,1E,
0,00000131,false,Rx,0,8,93,83,00,00,00,00,00,1E,
0,00000131,false,Rx,0,8,93,83,00,00,00,00,00,1E,
0,00000131,false,Rx,0,8,93,83,00,00,00,00,00,1E,
0,00000131,false,Rx,0,8,93,83,00,00,00,00,00,1E,
0,00000131,false,Rx,0,8,93,83,00,00,00,00,00,1E,
0,00000131,false,Rx,0,8,93,83,00,00,00,00,00,1E,
0,00000131,false,Rx,0,8,93,83,00,00,00,00,00,1E,
0,00000131,false,Rx,0,8,93,83,00,00,00,00,00,1E,
0,00000131,false,Rx,0,8,93,83,00,00,00,00,03,5E,
0,00000131,false,Rx,0,8,93,83,00,00,00,00,03,7E,
0,00000131,false,Rx,0,8,D3,FF,00,00,00,00,03,9F,
0,00000131,false,Rx,0,8,D3,FF,00,00,00,00,03,BF,
0,00000131,false,Rx,0,8,D3,FF,00,00,00,00,03,BF,
0,00000131,false,Rx,0,8,D3,FF,00,00,00,00,00,1F,
0,00000131,false,Rx,0,8,D3,FF,00,00,00,00,03,DF,
0,00000131,false,Rx,0,8,D3,FF,00,00,00,00,03,DF,
0,00000131,false,Rx,0,8,D3,FF,00,00,00,00,03,DF,
0,00000131,false,Rx,0,8,D3,FF,00,00,00,00,00,1F,
0,00000131,false,Rx,0,8,D3,FF,00,00,00,00,00,1F,
0,00000131,false,Rx,0,8,D3,FF,00,00,00,00,03,FF,
0,00000131,false,Rx,0,8,D3,FF,00,00,00,00,03,FF,
0,00000131,false,Rx,0,8,D3,FF,00,00,00,00,03,FF,
0,00000131,false,Rx,0,8,D3,FF,00,00,00,00,03,FF,
0,00000131,false,Rx,0,8,D3,FF,00,00,00,00,03,DF,
0,00000131,false,Rx,0,8,D3,FF,00,00,00,00,03,DF,
0,00000131,false,Rx,0,8,D3,FB,00,00,00,00,03,BE,
0,00000131,false,Rx,0,8,93,83,00,00,00,00,03,5D,
0,00000131,false,Rx,0,8,93,83,00,00,00,00,03,1C,
0,00000131,false,Rx,0,8,93,83,00,00,00,00,03,1C,
0,00000131,false,Rx,0,8,93,83,00,00,00,00,03,5C,
0,00000131,false,Rx,0,8,93,83,00,00,00,00,00,1A,
0,00000131,false,Rx,0,8,93,83,00,00,00,00,00,1A,
0,00000131,false,Rx,0,8,93,83,00,00,00,00,03,1A,
0,00000131,false,Rx,0,8,93,83,00,00,00,00,03,40,
0,00000131,false,Rx,0,8,93,83,00,00,00,00,03,20,
0,00000131,false,Rx,0,8,93,83,00,00,00,00,67,20,
0,00000131,false,Rx,0,8,93,83,00,00,00,00,67,20,
0,00000131,false,Rx,0,8,93,83,00,00,00,00,67,20,
0,00000131,false,Rx,0,8,93,83,00,00,00,00,67,20,
0,00000131,false,Rx,0,8,93,83,00,00,00,00,5E,E0,
0,00000131,false,Rx,0,8,93,83,00,00,00,00,5E,E0,
0,00000131,false,Rx,0,8,93,83,00,00,00,00,5A,A0,
